date Thu May 15 05:19:31.970 PM 2025
base hex  timestamps absolute
internal events logged
Begin Triggerblock Thu May 15 05:19:31.972 PM 2025
 0.000000 Start of measurement
 0.000000 1  457             Rx   d 8 57 04 00 00 00 00 FF FF
 0.046707 1  716             Tx   d 8 02 10 01 00 00 00 00 00
 0.054992 1  1B1             Rx   d 8 04 01 01 00 01 01 00 04
 0.065023 1  36E             Rx   d 8 00 00 00 C0 00 00 00 00
 0.066207 1  71E             Rx   d 8 06 50 01 00 32 01 F4 AA
 0.085049 1  3D5             Rx   d 8 FF 08 00 00 FC 00 00 00
 0.104935 1  1B2             Rx   d 8 F0 F0 0F F3 C0 33 3C 00
 0.254867 1  1B1             Rx   d 8 04 01 01 00 01 01 00 04
 0.264860 1  36E             Rx   d 8 00 00 00 C0 00 00 00 00
 0.284857 1  3D5             Rx   d 8 FF 08 00 00 FC 00 00 00
 0.304821 1  1B2             Rx   d 8 F0 F0 0F F3 C0 33 3C 00
 0.454854 1  1B1             Rx   d 8 04 01 01 00 01 01 00 04
 0.464873 1  36E             Rx   d 8 00 00 00 C0 00 00 00 00
 0.484867 1  3D5             Rx   d 8 FF 08 00 00 FC 00 00 00
 0.504823 1  1B2             Rx   d 8 F0 F0 0F F3 C0 33 3C 00
 0.654855 1  1B1             Rx   d 8 04 01 01 00 01 01 00 04
 0.664877 1  36E             Rx   d 8 00 00 00 C0 00 00 00 00
 0.684879 1  3D5             Rx   d 8 FF 08 00 00 FC 00 00 00
 0.704831 1  1B2             Rx   d 8 F0 F0 0F F3 C0 33 3C 00
 0.854869 1  1B1             Rx   d 8 04 01 01 00 01 01 00 04
 0.864877 1  36E             Rx   d 8 00 00 00 C0 00 00 00 00
 0.884883 1  3D5             Rx   d 8 FF 08 00 00 FC 00 00 00
 0.904839 1  1B2             Rx   d 8 F0 F0 0F F3 C0 33 3C 00
 0.999903 1  457             Rx   d 8 57 04 00 00 00 00 FF FF
 1.054872 1  1B1             Rx   d 8 04 01 01 00 01 01 00 04
 1.064875 1  36E             Rx   d 8 00 00 00 C0 00 00 00 00
 1.084885 1  3D5             Rx   d 8 FF 08 00 00 FC 00 00 00
 1.104843 1  1B2             Rx   d 8 F0 F0 0F F3 C0 33 3C 00
 1.254891 1  1B1             Rx   d 8 04 01 01 00 01 01 00 04
 1.264886 1  36E             Rx   d 8 00 00 00 C0 00 00 00 00
 1.284885 1  3D5             Rx   d 8 FF 08 00 00 FC 00 00 00
 1.304852 1  1B2             Rx   d 8 F0 F0 0F F3 C0 33 3C 00
 1.454888 1  1B1             Rx   d 8 04 01 01 00 01 01 00 04
 1.464891 1  36E             Rx   d 8 00 00 00 C0 00 00 00 00
 1.484893 1  3D5             Rx   d 8 FF 08 00 00 FC 00 00 00
 1.504848 1  1B2             Rx   d 8 F0 F0 0F F3 C0 33 3C 00
 1.654896 1  1B1             Rx   d 8 04 01 01 00 01 01 00 04
 1.664891 1  36E             Rx   d 8 00 00 00 C0 00 00 00 00
 1.684906 1  3D5             Rx   d 8 FF 08 00 00 FC 00 00 00
 1.704847 1  1B2             Rx   d 8 F0 F0 0F F3 C0 33 3C 00
 1.854903 1  1B1             Rx   d 8 04 01 01 00 01 01 00 04
 1.864908 1  36E             Rx   d 8 00 00 00 C0 00 00 00 00
 1.884909 1  3D5             Rx   d 8 FF 08 00 00 FC 00 00 00
 1.904865 1  1B2             Rx   d 8 F0 F0 0F F3 C0 33 3C 00
 1.999922 1  457             Rx   d 8 57 04 00 00 00 00 FF FF
 2.054909 1  1B1             Rx   d 8 04 01 01 00 01 01 00 04
 2.064898 1  36E             Rx   d 8 00 00 00 C0 00 00 00 00
 2.084911 1  3D5             Rx   d 8 FF 08 00 00 FC 00 00 00
 2.104861 1  1B2             Rx   d 8 F0 F0 0F F3 C0 33 3C 00
 2.184870 1  716             Tx   d 8 02 10 03 00 00 00 00 00
 2.205011 1  71E             Rx   d 8 06 50 03 00 32 01 F4 AA
 2.254925 1  1B1             Rx   d 8 04 01 01 00 01 01 00 04
 2.264916 1  36E             Rx   d 8 00 00 00 C0 00 00 00 00
 2.284933 1  3D5             Rx   d 8 FF 08 00 00 FC 00 00 00
 2.304879 1  1B2             Rx   d 8 F0 F0 0F F3 C0 33 3C 00
 2.454912 1  1B1             Rx   d 8 04 01 01 00 01 01 00 04
 2.464926 1  36E             Rx   d 8 00 00 00 C0 00 00 00 00
 2.484922 1  3D5             Rx   d 8 FF 08 00 00 FC 00 00 00
 2.504857 1  1B2             Rx   d 8 F0 F0 0F F3 C0 33 3C 00
 2.654916 1  1B1             Rx   d 8 04 01 01 00 01 01 00 04
 2.664920 1  36E             Rx   d 8 00 00 00 C0 00 00 00 00
 2.684934 1  3D5             Rx   d 8 FF 08 00 00 FC 00 00 00
 2.704858 1  1B2             Rx   d 8 F0 F0 0F F3 C0 33 3C 00
 2.854921 1  1B1             Rx   d 8 04 01 01 00 01 01 00 04
 2.864935 1  36E             Rx   d 8 00 00 00 C0 00 00 00 00
 2.884938 1  3D5             Rx   d 8 FF 08 00 00 FC 00 00 00
 2.904876 1  1B2             Rx   d 8 F0 F0 0F F3 C0 33 3C 00
 2.999948 1  457             Rx   d 8 57 04 00 00 00 00 FF FF
 3.054940 1  1B1             Rx   d 8 04 01 01 00 01 01 00 04
 3.064921 1  36E             Rx   d 8 00 00 00 C0 00 00 00 00
 3.084953 1  3D5             Rx   d 8 FF 08 00 00 FC 00 00 00
 3.104878 1  1B2             Rx   d 8 F0 F0 0F F3 C0 33 3C 00
 3.254940 1  1B1             Rx   d 8 04 01 01 00 01 01 00 04
 3.264938 1  36E             Rx   d 8 00 00 00 C0 00 00 00 00
 3.284955 1  3D5             Rx   d 8 FF 08 00 00 FC 00 00 00
 3.304879 1  1B2             Rx   d 8 F0 F0 0F F3 C0 33 3C 00
 3.454941 1  1B1             Rx   d 8 04 01 01 00 01 01 00 04
 3.464950 1  36E             Rx   d 8 00 00 00 C0 00 00 00 00
 3.484954 1  3D5             Rx   d 8 FF 08 00 00 FC 00 00 00
 3.504883 1  1B2             Rx   d 8 F0 F0 0F F3 C0 33 3C 00
 3.654946 1  1B1             Rx   d 8 04 01 01 00 01 01 00 04
 3.664944 1  36E             Rx   d 8 00 00 00 C0 00 00 00 00
 3.684951 1  3D5             Rx   d 8 FF 08 00 00 FC 00 00 00
 3.704884 1  1B2             Rx   d 8 F0 F0 0F F3 C0 33 3C 00
 3.854951 1  1B1             Rx   d 8 04 01 01 00 01 01 00 04
 3.864960 1  36E             Rx   d 8 00 00 00 C0 00 00 00 00
 3.884963 1  3D5             Rx   d 8 FF 08 00 00 FC 00 00 00
 3.904902 1  1B2             Rx   d 8 F0 F0 0F F3 C0 33 3C 00
 3.999979 1  457             Rx   d 8 57 04 00 00 00 00 FF FF
 4.054960 1  1B1             Rx   d 8 04 01 01 00 01 01 00 04
 4.064954 1  36E             Rx   d 8 00 00 00 C0 00 00 00 00
 4.084965 1  3D5             Rx   d 8 FF 08 00 00 FC 00 00 00
 4.104904 1  1B2             Rx   d 8 F0 F0 0F F3 C0 33 3C 00
 4.254960 1  1B1             Rx   d 8 04 01 01 00 01 01 00 04
 4.264962 1  36E             Rx   d 8 00 00 00 C0 00 00 00 00
 4.284983 1  3D5             Rx   d 8 FF 08 00 00 FC 00 00 00
 4.304903 1  1B2             Rx   d 8 F0 F0 0F F3 C0 33 3C 00
 4.454967 1  1B1             Rx   d 8 04 01 01 00 01 01 00 04
 4.464967 1  36E             Rx   d 8 00 00 00 C0 00 00 00 00
 4.484982 1  3D5             Rx   d 8 FF 08 00 00 FC 00 00 00
 4.504908 1  1B2             Rx   d 8 F0 F0 0F F3 C0 33 3C 00
 4.654971 1  1B1             Rx   d 8 04 01 01 00 01 01 00 04
 4.664972 1  36E             Rx   d 8 00 00 00 C0 00 00 00 00
 4.684979 1  3D5             Rx   d 8 FF 08 00 00 FC 00 00 00
 4.704921 1  1B2             Rx   d 8 F0 F0 0F F3 C0 33 3C 00
 4.854975 1  1B1             Rx   d 8 04 01 01 00 01 01 00 04
 4.864987 1  36E             Rx   d 8 00 00 00 C0 00 00 00 00
 4.885004 1  3D5             Rx   d 8 FF 08 00 00 FC 00 00 00
 4.904925 1  1B2             Rx   d 8 F0 F0 0F F3 C0 33 3C 00
 5.000000 1  457             Rx   d 8 57 04 00 00 00 00 FF FF
 5.054983 1  1B1             Rx   d 8 04 01 01 00 01 01 00 04
 5.064985 1  36E             Rx   d 8 00 00 00 C0 00 00 00 00
 5.085007 1  3D5             Rx   d 8 FF 08 00 00 FC 00 00 00
 5.105041 1  1B2             Rx   d 8 F0 F0 0F F3 C0 33 3C 00
 5.255079 1  1B1             Rx   d 8 04 01 01 00 01 01 00 04
 5.265095 1  36E             Rx   d 8 00 00 00 C0 00 00 00 00
 5.285081 1  3D5             Rx   d 8 FF 08 00 00 FC 00 00 00
 5.305053 1  1B2             Rx   d 8 F0 F0 0F F3 C0 33 3C 00
 5.455100 1  1B1             Rx   d 8 04 01 01 00 01 01 00 04
 5.465086 1  36E             Rx   d 8 00 00 00 C0 00 00 00 00
 5.485106 1  3D5             Rx   d 8 FF 08 00 00 FC 00 00 00
 5.505056 1  1B2             Rx   d 8 F0 F0 0F F3 C0 33 3C 00
 5.655088 1  1B1             Rx   d 8 04 01 01 00 01 01 00 04
 5.665102 1  36E             Rx   d 8 00 00 00 C0 00 00 00 00
 5.685087 1  3D5             Rx   d 8 FF 08 00 00 FC 00 00 00
 5.705072 1  1B2             Rx   d 8 F0 F0 0F F3 C0 33 3C 00
 5.855115 1  1B1             Rx   d 8 04 01 01 00 01 01 00 04
 5.865084 1  36E             Rx   d 8 00 00 00 C0 00 00 00 00
 5.885123 1  3D5             Rx   d 8 FF 08 00 00 FC 00 00 00
 5.905062 1  1B2             Rx   d 8 F0 F0 0F F3 C0 33 3C 00
 6.000129 1  457             Rx   d 8 57 04 00 00 00 00 FF FF
 6.055122 1  1B1             Rx   d 8 04 01 01 00 01 01 00 04
 6.065090 1  36E             Rx   d 8 00 00 00 C0 00 00 00 00
 6.085091 1  3D5             Rx   d 8 FF 08 00 00 FC 00 00 00
 6.105064 1  1B2             Rx   d 8 F0 F0 0F F3 C0 33 3C 00
 6.255132 1  1B1             Rx   d 8 04 01 01 00 01 01 00 04
 6.265118 1  36E             Rx   d 8 00 00 00 C0 00 00 00 00
 6.285094 1  3D5             Rx   d 8 FF 08 00 00 FC 00 00 00
 6.305066 1  1B2             Rx   d 8 F0 F0 0F F3 C0 33 3C 00
 6.416254 1  716             Tx   d 8 03 22 F1 EF 00 00 00 00
 6.435281 1  71E             Rx   d 8 10 2B 62 F1 EF 07 16 0B
 6.450370 1  716             Tx   d 8 30 08 0A 00 00 00 00 00
 6.455155 1  1B1             Rx   d 8 04 01 01 00 01 01 00 04
 6.456268 1  71E             Rx   d 8 21 52 31 30 20 4B 59 31
 6.465586 1  36E             Rx   d 8 00 00 00 C0 00 00 00 00
 6.470211 1  71E             Rx   d 8 22 2F 31 2F 30 0C 52 31
 6.485190 1  3D5             Rx   d 8 FF 08 00 00 FC 00 00 00
 6.486219 1  71E             Rx   d 8 23 35 35 20 4B 59 31 2F
 6.500078 1  71E             Rx   d 8 24 31 2F 30 0C 52 31 35
 6.505114 1  1B2             Rx   d 8 F0 F0 0F F3 C0 33 3C 00
 6.515060 1  71E             Rx   d 8 25 36 20 4B 59 31 2F 31
 6.529955 1  71E             Rx   d 8 26 2F 30 AA AA AA AA AA
 6.655062 1  1B1             Rx   d 8 04 01 01 00 01 01 00 04
 6.665048 1  36E             Rx   d 8 00 00 00 C0 00 00 00 00
 6.685038 1  3D5             Rx   d 8 FF 08 00 00 FC 00 00 00
 6.704987 1  1B2             Rx   d 8 F0 F0 0F F3 C0 33 3C 00
 6.855029 1  1B1             Rx   d 8 04 01 01 00 01 01 00 04
 6.865026 1  36E             Rx   d 8 00 00 00 C0 00 00 00 00
 6.885041 1  3D5             Rx   d 8 FF 08 00 00 FC 00 00 00
 6.904966 1  1B2             Rx   d 8 F0 F0 0F F3 C0 33 3C 00
 7.000049 1  457             Rx   d 8 57 04 00 00 00 00 FF FF
 7.055033 1  1B1             Rx   d 8 04 01 01 00 01 01 00 04
 7.065035 1  36E             Rx   d 8 00 00 00 C0 00 00 00 00
 7.085058 1  3D5             Rx   d 8 FF 08 00 00 FC 00 00 00
 7.104983 1  1B2             Rx   d 8 F0 F0 0F F3 C0 33 3C 00
 7.255042 1  1B1             Rx   d 8 04 01 01 00 01 01 00 04
 7.265032 1  36E             Rx   d 8 00 00 00 C0 00 00 00 00
 7.285045 1  3D5             Rx   d 8 FF 08 00 00 FC 00 00 00
 7.304987 1  1B2             Rx   d 8 F0 F0 0F F3 C0 33 3C 00
 7.455042 1  1B1             Rx   d 8 04 01 01 00 01 01 00 04
 7.465033 1  36E             Rx   d 8 00 00 00 C0 00 00 00 00
 7.485058 1  3D5             Rx   d 8 FF 08 00 00 FC 00 00 00
 7.504998 1  1B2             Rx   d 8 F0 F0 0F F3 C0 33 3C 00
 7.655053 1  1B1             Rx   d 8 04 01 01 00 01 01 00 04
 7.665047 1  36E             Rx   d 8 00 00 00 C0 00 00 00 00
 7.685049 1  3D5             Rx   d 8 FF 08 00 00 FC 00 00 00
 7.704996 1  1B2             Rx   d 8 F0 F0 0F F3 C0 33 3C 00
 7.855049 1  1B1             Rx   d 8 04 01 01 00 01 01 00 04
 7.865050 1  36E             Rx   d 8 00 00 00 C0 00 00 00 00
 7.885067 1  3D5             Rx   d 8 FF 08 00 00 FC 00 00 00
 7.905005 1  1B2             Rx   d 8 F0 F0 0F F3 C0 33 3C 00
 8.000079 1  457             Rx   d 8 57 04 00 00 00 00 FF FF
 8.055055 1  1B1             Rx   d 8 04 01 01 00 01 01 00 04
 8.065050 1  36E             Rx   d 8 00 00 00 C0 00 00 00 00
 8.085082 1  3D5             Rx   d 8 FF 08 00 00 FC 00 00 00
 8.105004 1  1B2             Rx   d 8 F0 F0 0F F3 C0 33 3C 00
 8.255060 1  1B1             Rx   d 8 04 01 01 00 01 01 00 04
 8.265054 1  36E             Rx   d 8 00 00 00 C0 00 00 00 00
 8.285070 1  3D5             Rx   d 8 FF 08 00 00 FC 00 00 00
 8.305011 1  1B2             Rx   d 8 F0 F0 0F F3 C0 33 3C 00
 8.455077 1  1B1             Rx   d 8 04 01 01 00 01 01 00 04
 8.465106 1  36E             Rx   d 8 00 00 00 C0 00 00 00 00
 8.485104 1  3D5             Rx   d 8 FF 08 00 00 FC 00 00 00
 8.505044 1  1B2             Rx   d 8 F0 F0 0F F3 C0 33 3C 00
 8.599891 1  716             Tx   d 8 03 22 F1 00 00 00 00 00
 8.615493 1  71E             Rx   d 8 06 62 F1 00 25 04 01 AA
 8.655213 1  1B1             Rx   d 8 04 01 01 00 01 01 00 04
 8.665262 1  36E             Rx   d 8 00 00 00 C0 00 00 00 00
 8.685450 1  3D5             Rx   d 8 FF 08 00 00 FC 00 00 00
 8.705065 1  1B2             Rx   d 8 F0 F0 0F F3 C0 33 3C 00
 8.855066 1  1B1             Rx   d 8 04 01 01 00 01 01 00 04
 8.865069 1  36E             Rx   d 8 00 00 00 C0 00 00 00 00
 8.885095 1  3D5             Rx   d 8 FF 08 00 00 FC 00 00 00
 8.905039 1  1B2             Rx   d 8 F0 F0 0F F3 C0 33 3C 00
 9.000111 1  457             Rx   d 8 57 04 00 00 00 00 FF FF
 9.055083 1  1B1             Rx   d 8 04 01 01 00 01 01 00 04
 9.065062 1  36E             Rx   d 8 00 00 00 C0 00 00 00 00
 9.085111 1  3D5             Rx   d 8 FF 08 00 00 FC 00 00 00
 9.105054 1  1B2             Rx   d 8 F0 F0 0F F3 C0 33 3C 00
 9.255083 1  1B1             Rx   d 8 04 01 01 00 01 01 00 04
 9.265077 1  36E             Rx   d 8 00 00 00 C0 00 00 00 00
 9.285101 1  3D5             Rx   d 8 FF 08 00 00 FC 00 00 00
 9.305080 1  1B2             Rx   d 8 F0 F0 0F F3 C0 33 3C 00
 9.455096 1  1B1             Rx   d 8 04 01 01 00 01 01 00 04
 9.465098 1  36E             Rx   d 8 00 00 00 C0 00 00 00 00
 9.485104 1  3D5             Rx   d 8 FF 08 00 00 FC 00 00 00
 9.505059 1  1B2             Rx   d 8 F0 F0 0F F3 C0 33 3C 00
 9.655105 1  1B1             Rx   d 8 04 01 01 00 01 01 00 04
 9.665088 1  36E             Rx   d 8 00 00 00 C0 00 00 00 00
 9.685107 1  3D5             Rx   d 8 FF 08 00 00 FC 00 00 00
 9.705041 1  1B2             Rx   d 8 F0 F0 0F F3 C0 33 3C 00
 9.855086 1  1B1             Rx   d 8 04 01 01 00 01 01 00 04
 9.865087 1  36E             Rx   d 8 00 00 00 C0 00 00 00 00
 9.885107 1  3D5             Rx   d 8 FF 08 00 00 FC 00 00 00
 9.905047 1  1B2             Rx   d 8 F0 F0 0F F3 C0 33 3C 00
 10.000127 1  457             Rx   d 8 57 04 00 00 00 00 FF FF
 10.055091 1  1B1             Rx   d 8 04 01 01 00 01 01 00 04
 10.065100 1  36E             Rx   d 8 00 00 00 C0 00 00 00 00
 10.085105 1  3D5             Rx   d 8 FF 08 00 00 FC 00 00 00
 10.105038 1  1B2             Rx   d 8 F0 F0 0F F3 C0 33 3C 00
 10.255117 1  1B1             Rx   d 8 04 01 01 00 01 01 00 04
 10.265094 1  36E             Rx   d 8 00 00 00 C0 00 00 00 00
 10.285105 1  3D5             Rx   d 8 FF 08 00 00 FC 00 00 00
 10.305048 1  1B2             Rx   d 8 F0 F0 0F F3 C0 33 3C 00
 10.455110 1  1B1             Rx   d 8 04 01 01 00 01 01 00 04
 10.465107 1  36E             Rx   d 8 00 00 00 C0 00 00 00 00
 10.485123 1  3D5             Rx   d 8 FF 08 00 00 FC 00 00 00
 10.505060 1  1B2             Rx   d 8 F0 F0 0F F3 C0 33 3C 00
 10.655113 1  1B1             Rx   d 8 04 01 01 00 01 01 00 04
 10.665111 1  36E             Rx   d 8 00 00 00 C0 00 00 00 00
 10.685109 1  3D5             Rx   d 8 FF 08 00 00 FC 00 00 00
 10.705064 1  1B2             Rx   d 8 F0 F0 0F F3 C0 33 3C 00
 10.737568 1  716             Tx   d 8 03 22 F1 87 00 00 00 00
 10.755143 1  71E             Rx   d 8 10 0D 62 F1 87 39 36 35
 10.760842 1  716             Tx   d 8 30 08 0A 00 00 00 00 00
 10.765232 1  71E             Rx   d 8 21 34 30 44 59 30 30 30
 10.855219 1  1B1             Rx   d 8 04 01 01 00 01 01 00 04
 10.865221 1  36E             Rx   d 8 00 00 00 C0 00 00 00 00
 10.885145 1  3D5             Rx   d 8 FF 08 00 00 FC 00 00 00
 10.905089 1  1B2             Rx   d 8 F0 F0 0F F3 C0 33 3C 00
 11.000149 1  457             Rx   d 8 57 04 00 00 00 00 FF FF
 11.055120 1  1B1             Rx   d 8 04 01 01 00 01 01 00 04
 11.065112 1  36E             Rx   d 8 00 00 00 C0 00 00 00 00
 11.085122 1  3D5             Rx   d 8 FF 08 00 00 FC 00 00 00
 11.105091 1  1B2             Rx   d 8 F0 F0 0F F3 C0 33 3C 00
 11.255138 1  1B1             Rx   d 8 04 01 01 00 01 01 00 04
 11.265129 1  36E             Rx   d 8 00 00 00 C0 00 00 00 00
 11.285124 1  3D5             Rx   d 8 FF 08 00 00 FC 00 00 00
 11.305092 1  1B2             Rx   d 8 F0 F0 0F F3 C0 33 3C 00
 11.455149 1  1B1             Rx   d 8 04 01 01 00 01 01 00 04
 11.465148 1  36E             Rx   d 8 00 00 00 C0 00 00 00 00
 11.485147 1  3D5             Rx   d 8 FF 08 00 00 FC 00 00 00
 11.505208 1  1B2             Rx   d 8 F0 F0 0F F3 C0 33 3C 00
 11.655260 1  1B1             Rx   d 8 04 01 01 00 01 01 00 04
 11.665228 1  36E             Rx   d 8 00 00 00 C0 00 00 00 00
 11.685226 1  3D5             Rx   d 8 FF 08 00 00 FC 00 00 00
 11.705210 1  1B2             Rx   d 8 F0 F0 0F F3 C0 33 3C 00
 11.855250 1  1B1             Rx   d 8 04 01 01 00 01 01 00 04
 11.865230 1  36E             Rx   d 8 00 00 00 C0 00 00 00 00
 11.885255 1  3D5             Rx   d 8 FF 08 00 00 FC 00 00 00
 11.905215 1  1B2             Rx   d 8 F0 F0 0F F3 C0 33 3C 00
 12.000278 1  457             Rx   d 8 57 04 00 00 00 00 FF FF
 12.055256 1  1B1             Rx   d 8 04 01 01 00 01 01 00 04
 12.065241 1  36E             Rx   d 8 00 00 00 C0 00 00 00 00
 12.085249 1  3D5             Rx   d 8 FF 08 00 00 FC 00 00 00
 12.105217 1  1B2             Rx   d 8 F0 F0 0F F3 C0 33 3C 00
 12.255261 1  1B1             Rx   d 8 04 01 01 00 01 01 00 04
 12.265248 1  36E             Rx   d 8 00 00 00 C0 00 00 00 00
 12.285235 1  3D5             Rx   d 8 FF 08 00 00 FC 00 00 00
 12.305219 1  1B2             Rx   d 8 F0 F0 0F F3 C0 33 3C 00
 12.455279 1  1B1             Rx   d 8 04 01 01 00 01 01 00 04
 12.465261 1  36E             Rx   d 8 00 00 00 C0 00 00 00 00
 12.485252 1  3D5             Rx   d 8 FF 08 00 00 FC 00 00 00
 12.505224 1  1B2             Rx   d 8 F0 F0 0F F3 C0 33 3C 00
 12.655270 1  1B1             Rx   d 8 04 01 01 00 01 01 00 04
 12.665257 1  36E             Rx   d 8 00 00 00 C0 00 00 00 00
 12.685253 1  3D5             Rx   d 8 FF 08 00 00 FC 00 00 00
 12.705228 1  1B2             Rx   d 8 F0 F0 0F F3 C0 33 3C 00
 12.855283 1  1B1             Rx   d 8 04 01 01 00 01 01 00 04
 12.865254 1  36E             Rx   d 8 00 00 00 C0 00 00 00 00
 12.885059 1  716             Tx   d 8 03 22 F1 8B 00 00 00 00
 12.886380 1  3D5             Rx   d 8 FF 08 00 00 FC 00 00 00
 12.905321 1  1B2             Rx   d 8 F0 F0 0F F3 C0 33 3C 00
 12.906448 1  71E             Rx   d 8 07 62 F1 8B 00 00 00 00
 13.000254 1  457             Rx   d 8 57 04 00 00 00 00 FF FF
 13.055217 1  1B1             Rx   d 8 04 01 01 00 01 01 00 04
 13.065238 1  36E             Rx   d 8 00 00 00 C0 00 00 00 00
 13.085231 1  3D5             Rx   d 8 FF 08 00 00 FC 00 00 00
 13.105172 1  1B2             Rx   d 8 F0 F0 0F F3 C0 33 3C 00
 13.255324 1  1B1             Rx   d 8 04 01 01 00 01 01 00 04
 13.265307 1  36E             Rx   d 8 00 00 00 C0 00 00 00 00
 13.285278 1  3D5             Rx   d 8 FF 08 00 00 FC 00 00 00
 13.305227 1  1B2             Rx   d 8 F0 F0 0F F3 C0 33 3C 00
 13.455349 1  1B1             Rx   d 8 04 01 01 00 01 01 00 04
 13.465356 1  36E             Rx   d 8 00 00 00 C0 00 00 00 00
 13.485379 1  3D5             Rx   d 8 FF 08 00 00 FC 00 00 00
 13.505429 1  1B2             Rx   d 8 F0 F0 0F F3 C0 33 3C 00
 13.655334 1  1B1             Rx   d 8 04 01 01 00 01 01 00 04
 13.665284 1  36E             Rx   d 8 00 00 00 C0 00 00 00 00
 13.685269 1  3D5             Rx   d 8 FF 08 00 00 FC 00 00 00
 13.705223 1  1B2             Rx   d 8 F0 F0 0F F3 C0 33 3C 00
 13.855298 1  1B1             Rx   d 8 04 01 01 00 01 01 00 04
 13.865365 1  36E             Rx   d 8 00 00 00 C0 00 00 00 00
 13.885239 1  3D5             Rx   d 8 FF 08 00 00 FC 00 00 00
 13.905168 1  1B2             Rx   d 8 F0 F0 0F F3 C0 33 3C 00
 14.000232 1  457             Rx   d 8 57 04 00 00 00 00 FF FF
 14.055228 1  1B1             Rx   d 8 04 01 01 00 01 01 00 04
 14.065209 1  36E             Rx   d 8 00 00 00 C0 00 00 00 00
 14.085220 1  3D5             Rx   d 8 FF 08 00 00 FC 00 00 00
 14.105150 1  1B2             Rx   d 8 F0 F0 0F F3 C0 33 3C 00
 14.255225 1  1B1             Rx   d 8 04 01 01 00 01 01 00 04
 14.265227 1  36E             Rx   d 8 00 00 00 C0 00 00 00 00
 14.285228 1  3D5             Rx   d 8 FF 08 00 00 FC 00 00 00
 14.305155 1  1B2             Rx   d 8 F0 F0 0F F3 C0 33 3C 00
 14.455221 1  1B1             Rx   d 8 04 01 01 00 01 01 00 04
 14.465229 1  36E             Rx   d 8 00 00 00 C0 00 00 00 00
 14.485233 1  3D5             Rx   d 8 FF 08 00 00 FC 00 00 00
 14.505155 1  1B2             Rx   d 8 F0 F0 0F F3 C0 33 3C 00
 14.655221 1  1B1             Rx   d 8 04 01 01 00 01 01 00 04
 14.665228 1  36E             Rx   d 8 00 00 00 C0 00 00 00 00
 14.685238 1  3D5             Rx   d 8 FF 08 00 00 FC 00 00 00
 14.705162 1  1B2             Rx   d 8 F0 F0 0F F3 C0 33 3C 00
 14.855224 1  1B1             Rx   d 8 04 01 01 00 01 01 00 04
 14.865236 1  36E             Rx   d 8 00 00 00 C0 00 00 00 00
 14.885245 1  3D5             Rx   d 8 FF 08 00 00 FC 00 00 00
 14.905178 1  1B2             Rx   d 8 F0 F0 0F F3 C0 33 3C 00
 15.000259 1  457             Rx   d 8 57 04 00 00 00 00 FF FF
 15.053666 1  716             Tx   d 8 03 22 F1 8C 00 00 00 00
 15.055190 1  1B1             Rx   d 8 04 01 01 00 01 01 00 04
 15.065306 1  36E             Rx   d 8 00 00 00 C0 00 00 00 00
 15.075388 1  71E             Rx   d 8 10 0D 62 F1 8C 00 00 00
 15.085325 1  3D5             Rx   d 8 FF 08 00 00 FC 00 00 00
 15.089013 1  716             Tx   d 8 30 08 0A 00 00 00 00 00
 15.090301 1  71E             Rx   d 8 21 00 00 00 00 00 00 00
 15.105256 1  1B2             Rx   d 8 F0 F0 0F F3 C0 33 3C 00
 15.255242 1  1B1             Rx   d 8 04 01 01 00 01 01 00 04
 15.265238 1  36E             Rx   d 8 00 00 00 C0 00 00 00 00
 15.285245 1  3D5             Rx   d 8 FF 08 00 00 FC 00 00 00
 15.305172 1  1B2             Rx   d 8 F0 F0 0F F3 C0 33 3C 00
 15.455246 1  1B1             Rx   d 8 04 01 01 00 01 01 00 04
 15.465247 1  36E             Rx   d 8 00 00 00 C0 00 00 00 00
 15.485265 1  3D5             Rx   d 8 FF 08 00 00 FC 00 00 00
 15.505181 1  1B2             Rx   d 8 F0 F0 0F F3 C0 33 3C 00
 15.655248 1  1B1             Rx   d 8 04 01 01 00 01 01 00 04
 15.665243 1  36E             Rx   d 8 00 00 00 C0 00 00 00 00
 15.685258 1  3D5             Rx   d 8 FF 08 00 00 FC 00 00 00
 15.705184 1  1B2             Rx   d 8 F0 F0 0F F3 C0 33 3C 00
 15.855259 1  1B1             Rx   d 8 04 01 01 00 01 01 00 04
 15.865253 1  36E             Rx   d 8 00 00 00 C0 00 00 00 00
 15.885268 1  3D5             Rx   d 8 FF 08 00 00 FC 00 00 00
 15.905201 1  1B2             Rx   d 8 F0 F0 0F F3 C0 33 3C 00
 16.000273 1  457             Rx   d 8 57 04 00 00 00 00 FF FF
 16.055258 1  1B1             Rx   d 8 04 01 01 00 01 01 00 04
 16.065262 1  36E             Rx   d 8 00 00 00 C0 00 00 00 00
 16.085262 1  3D5             Rx   d 8 FF 08 00 00 FC 00 00 00
 16.105202 1  1B2             Rx   d 8 F0 F0 0F F3 C0 33 3C 00
 16.255255 1  1B1             Rx   d 8 04 01 01 00 01 01 00 04
 16.265279 1  36E             Rx   d 8 00 00 00 C0 00 00 00 00
 16.285275 1  3D5             Rx   d 8 FF 08 00 00 FC 00 00 00
 16.305202 1  1B2             Rx   d 8 F0 F0 0F F3 C0 33 3C 00
 16.455267 1  1B1             Rx   d 8 04 01 01 00 01 01 00 04
 16.465266 1  36E             Rx   d 8 00 00 00 C0 00 00 00 00
 16.485278 1  3D5             Rx   d 8 FF 08 00 00 FC 00 00 00
 16.505207 1  1B2             Rx   d 8 F0 F0 0F F3 C0 33 3C 00
 16.655270 1  1B1             Rx   d 8 04 01 01 00 01 01 00 04
 16.665269 1  36E             Rx   d 8 00 00 00 C0 00 00 00 00
 16.685313 1  3D5             Rx   d 8 FF 08 00 00 FC 00 00 00
 16.705219 1  1B2             Rx   d 8 F0 F0 0F F3 C0 33 3C 00
 16.855288 1  1B1             Rx   d 8 04 01 01 00 01 01 00 04
 16.865273 1  36E             Rx   d 8 00 00 00 C0 00 00 00 00
 16.885287 1  3D5             Rx   d 8 FF 08 00 00 FC 00 00 00
 16.905239 1  1B2             Rx   d 8 F0 F0 0F F3 C0 33 3C 00
 17.000299 1  457             Rx   d 8 57 04 00 00 00 00 FF FF
 17.055290 1  1B1             Rx   d 8 04 01 01 00 01 01 00 04
 17.065272 1  36E             Rx   d 8 00 00 00 C0 00 00 00 00
 17.085290 1  3D5             Rx   d 8 FF 08 00 00 FC 00 00 00
 17.105232 1  1B2             Rx   d 8 F0 F0 0F F3 C0 33 3C 00
 17.204241 1  716             Tx   d 8 03 22 F1 91 00 00 00 00
 17.225292 1  71E             Rx   d 8 10 08 62 F1 91 30 31 2E
 17.235645 1  716             Tx   d 8 30 08 0A 00 00 00 00 00
 17.240244 1  71E             Rx   d 8 21 30 30 AA AA AA AA AA
 17.255286 1  1B1             Rx   d 8 04 01 01 00 01 01 00 04
 17.265637 1  36E             Rx   d 8 00 00 00 C0 00 00 00 00
 17.285310 1  3D5             Rx   d 8 FF 08 00 00 FC 00 00 00
 17.305263 1  1B2             Rx   d 8 F0 F0 0F F3 C0 33 3C 00
 17.455292 1  1B1             Rx   d 8 04 01 01 00 01 01 00 04
 17.465308 1  36E             Rx   d 8 00 00 00 C0 00 00 00 00
 17.485292 1  3D5             Rx   d 8 FF 08 00 00 FC 00 00 00
 17.505239 1  1B2             Rx   d 8 F0 F0 0F F3 C0 33 3C 00
 17.655304 1  1B1             Rx   d 8 04 01 01 00 01 01 00 04
 17.665320 1  36E             Rx   d 8 00 00 00 C0 00 00 00 00
 17.685295 1  3D5             Rx   d 8 FF 08 00 00 FC 00 00 00
 17.705251 1  1B2             Rx   d 8 F0 F0 0F F3 C0 33 3C 00
 17.855308 1  1B1             Rx   d 8 04 01 01 00 01 01 00 04
 17.865318 1  36E             Rx   d 8 00 00 00 C0 00 00 00 00
 17.885315 1  3D5             Rx   d 8 FF 08 00 00 FC 00 00 00
 17.905267 1  1B2             Rx   d 8 F0 F0 0F F3 C0 33 3C 00
 18.000326 1  457             Rx   d 8 57 04 00 00 00 00 FF FF
 18.055304 1  1B1             Rx   d 8 04 01 01 00 01 01 00 04
 18.065323 1  36E             Rx   d 8 00 00 00 C0 00 00 00 00
 18.085318 1  3D5             Rx   d 8 FF 08 00 00 FC 00 00 00
 18.105242 1  1B2             Rx   d 8 F0 F0 0F F3 C0 33 3C 00
 18.255309 1  1B1             Rx   d 8 04 01 01 00 01 01 00 04
 18.265315 1  36E             Rx   d 8 00 00 00 C0 00 00 00 00
 18.285323 1  3D5             Rx   d 8 FF 08 00 00 FC 00 00 00
 18.305245 1  1B2             Rx   d 8 F0 F0 0F F3 C0 33 3C 00
 18.455326 1  1B1             Rx   d 8 04 01 01 00 01 01 00 04
 18.465305 1  36E             Rx   d 8 00 00 00 C0 00 00 00 00
 18.485329 1  3D5             Rx   d 8 FF 08 00 00 FC 00 00 00
 18.505260 1  1B2             Rx   d 8 F0 F0 0F F3 C0 33 3C 00
 18.655439 1  1B1             Rx   d 8 04 01 01 00 01 01 00 04
 18.665407 1  36E             Rx   d 8 00 00 00 C0 00 00 00 00
 18.685437 1  3D5             Rx   d 8 FF 08 00 00 FC 00 00 00
 18.705362 1  1B2             Rx   d 8 F0 F0 0F F3 C0 33 3C 00
 18.855429 1  1B1             Rx   d 8 04 01 01 00 01 01 00 04
 18.865416 1  36E             Rx   d 8 00 00 00 C0 00 00 00 00
 18.885449 1  3D5             Rx   d 8 FF 08 00 00 FC 00 00 00
 18.905386 1  1B2             Rx   d 8 F0 F0 0F F3 C0 33 3C 00
 19.000468 1  457             Rx   d 8 57 04 00 00 00 00 FF FF
 19.055442 1  1B1             Rx   d 8 04 01 01 00 01 01 00 04
 19.065428 1  36E             Rx   d 8 00 00 00 C0 00 00 00 00
 19.085455 1  3D5             Rx   d 8 FF 08 00 00 FC 00 00 00
 19.105371 1  1B2             Rx   d 8 F0 F0 0F F3 C0 33 3C 00
 19.255429 1  1B1             Rx   d 8 04 01 01 00 01 01 00 04
 19.265443 1  36E             Rx   d 8 00 00 00 C0 00 00 00 00
 19.285461 1  3D5             Rx   d 8 FF 08 00 00 FC 00 00 00
 19.305359 1  1B2             Rx   d 8 F0 F0 0F F3 C0 33 3C 00
 19.359954 1  716             Tx   d 8 03 22 F1 93 00 00 00 00
 19.375460 1  71E             Rx   d 8 10 08 62 F1 93 30 31 2E
 19.386219 1  716             Tx   d 8 30 08 0A 00 00 00 00 00
 19.390414 1  71E             Rx   d 8 21 30 30 AA AA AA AA AA
 19.455409 1  1B1             Rx   d 8 04 01 01 00 01 01 00 04
 19.465574 1  36E             Rx   d 8 00 00 00 C0 00 00 00 00
 19.485952 1  3D5             Rx   d 8 FF 08 00 00 FC 00 00 00
 19.505305 1  1B2             Rx   d 8 F0 F0 0F F3 C0 33 3C 00
 19.655364 1  1B1             Rx   d 8 04 01 01 00 01 01 00 04
 19.665351 1  36E             Rx   d 8 00 00 00 C0 00 00 00 00
 19.685343 1  3D5             Rx   d 8 FF 08 00 00 FC 00 00 00
 19.705316 1  1B2             Rx   d 8 F0 F0 0F F3 C0 33 3C 00
 19.855363 1  1B1             Rx   d 8 04 01 01 00 01 01 00 04
 19.865378 1  36E             Rx   d 8 00 00 00 C0 00 00 00 00
 19.885361 1  3D5             Rx   d 8 FF 08 00 00 FC 00 00 00
 19.905324 1  1B2             Rx   d 8 F0 F0 0F F3 C0 33 3C 00
 20.000387 1  457             Rx   d 8 57 04 00 00 00 00 FF FF
 20.055353 1  1B1             Rx   d 8 04 01 01 00 01 01 00 04
 20.065387 1  36E             Rx   d 8 00 00 00 C0 00 00 00 00
 20.085355 1  3D5             Rx   d 8 FF 08 00 00 FC 00 00 00
 20.105307 1  1B2             Rx   d 8 F0 F0 0F F3 C0 33 3C 00
 20.255368 1  1B1             Rx   d 8 04 01 01 00 01 01 00 04
 20.265376 1  36E             Rx   d 8 00 00 00 C0 00 00 00 00
 20.285369 1  3D5             Rx   d 8 FF 08 00 00 FC 00 00 00
 20.305310 1  1B2             Rx   d 8 F0 F0 0F F3 C0 33 3C 00
 20.455378 1  1B1             Rx   d 8 04 01 01 00 01 01 00 04
 20.465375 1  36E             Rx   d 8 00 00 00 C0 00 00 00 00
 20.485366 1  3D5             Rx   d 8 FF 08 00 00 FC 00 00 00
 20.505312 1  1B2             Rx   d 8 F0 F0 0F F3 C0 33 3C 00
 20.655378 1  1B1             Rx   d 8 04 01 01 00 01 01 00 04
 20.665389 1  36E             Rx   d 8 00 00 00 C0 00 00 00 00
 20.685385 1  3D5             Rx   d 8 FF 08 00 00 FC 00 00 00
 20.705330 1  1B2             Rx   d 8 F0 F0 0F F3 C0 33 3C 00
 20.855389 1  1B1             Rx   d 8 04 01 01 00 01 01 00 04
 20.865402 1  36E             Rx   d 8 00 00 00 C0 00 00 00 00
 20.885375 1  3D5             Rx   d 8 FF 08 00 00 FC 00 00 00
 20.905342 1  1B2             Rx   d 8 F0 F0 0F F3 C0 33 3C 00
 21.000399 1  457             Rx   d 8 57 04 00 00 00 00 FF FF
 21.055384 1  1B1             Rx   d 8 04 01 01 00 01 01 00 04
 21.065398 1  36E             Rx   d 8 00 00 00 C0 00 00 00 00
 21.085407 1  3D5             Rx   d 8 FF 08 00 00 FC 00 00 00
 21.105338 1  1B2             Rx   d 8 F0 F0 0F F3 C0 33 3C 00
 21.255394 1  1B1             Rx   d 8 04 01 01 00 01 01 00 04
 21.265395 1  36E             Rx   d 8 00 00 00 C0 00 00 00 00
 21.285396 1  3D5             Rx   d 8 FF 08 00 00 FC 00 00 00
 21.305336 1  1B2             Rx   d 8 F0 F0 0F F3 C0 33 3C 00
 21.455399 1  1B1             Rx   d 8 04 01 01 00 01 01 00 04
 21.465397 1  36E             Rx   d 8 00 00 00 C0 00 00 00 00
 21.485413 1  3D5             Rx   d 8 FF 08 00 00 FC 00 00 00
 21.505342 1  1B2             Rx   d 8 F0 F0 0F F3 C0 33 3C 00
 21.533786 1  716             Tx   d 8 03 22 F1 95 00 00 00 00
 21.555442 1  71E             Rx   d 8 10 08 62 F1 95 30 31 2E
 21.566054 1  716             Tx   d 8 30 08 0A 00 00 00 00 00
 21.570501 1  71E             Rx   d 8 21 30 31 AA AA AA AA AA
 21.655432 1  1B1             Rx   d 8 04 01 01 00 01 01 00 04
 21.665606 1  36E             Rx   d 8 00 00 00 C0 00 00 00 00
 21.685425 1  3D5             Rx   d 8 FF 08 00 00 FC 00 00 00
 21.705366 1  1B2             Rx   d 8 F0 F0 0F F3 C0 33 3C 00
 21.855416 1  1B1             Rx   d 8 04 01 01 00 01 01 00 04
 21.865421 1  36E             Rx   d 8 00 00 00 C0 00 00 00 00
 21.885405 1  3D5             Rx   d 8 FF 08 00 00 FC 00 00 00
 21.905367 1  1B2             Rx   d 8 F0 F0 0F F3 C0 33 3C 00
 22.000439 1  457             Rx   d 8 57 04 00 00 00 00 FF FF
 22.055418 1  1B1             Rx   d 8 04 01 01 00 01 01 00 04
 22.065405 1  36E             Rx   d 8 00 00 00 C0 00 00 00 00
 22.085416 1  3D5             Rx   d 8 FF 08 00 00 FC 00 00 00
 22.105376 1  1B2             Rx   d 8 F0 F0 0F F3 C0 33 3C 00
 22.255431 1  1B1             Rx   d 8 04 01 01 00 01 01 00 04
 22.265421 1  36E             Rx   d 8 00 00 00 C0 00 00 00 00
 22.285409 1  3D5             Rx   d 8 FF 08 00 00 FC 00 00 00
 22.305378 1  1B2             Rx   d 8 F0 F0 0F F3 C0 33 3C 00
 22.455455 1  1B1             Rx   d 8 04 01 01 00 01 01 00 04
 22.465427 1  36E             Rx   d 8 00 00 00 C0 00 00 00 00
 22.485424 1  3D5             Rx   d 8 FF 08 00 00 FC 00 00 00
 22.505382 1  1B2             Rx   d 8 F0 F0 0F F3 C0 33 3C 00
 22.655438 1  1B1             Rx   d 8 04 01 01 00 01 01 00 04
 22.665432 1  36E             Rx   d 8 00 00 00 C0 00 00 00 00
 22.685425 1  3D5             Rx   d 8 FF 08 00 00 FC 00 00 00
 22.705384 1  1B2             Rx   d 8 F0 F0 0F F3 C0 33 3C 00
 22.855435 1  1B1             Rx   d 8 04 01 01 00 01 01 00 04
 22.865454 1  36E             Rx   d 8 00 00 00 C0 00 00 00 00
 22.885437 1  3D5             Rx   d 8 FF 08 00 00 FC 00 00 00
 22.905396 1  1B2             Rx   d 8 F0 F0 0F F3 C0 33 3C 00
 23.000462 1  457             Rx   d 8 57 04 00 00 00 00 FF FF
 23.055431 1  1B1             Rx   d 8 04 01 01 00 01 01 00 04
 23.065429 1  36E             Rx   d 8 00 00 00 C0 00 00 00 00
 23.085433 1  3D5             Rx   d 8 FF 08 00 00 FC 00 00 00
 23.105388 1  1B2             Rx   d 8 F0 F0 0F F3 C0 33 3C 00
 23.255448 1  1B1             Rx   d 8 04 01 01 00 01 01 00 04
 23.265444 1  36E             Rx   d 8 00 00 00 C0 00 00 00 00
 23.285432 1  3D5             Rx   d 8 FF 08 00 00 FC 00 00 00
 23.305395 1  1B2             Rx   d 8 F0 F0 0F F3 C0 33 3C 00
 23.455452 1  1B1             Rx   d 8 04 01 01 00 01 01 00 04
 23.465465 1  36E             Rx   d 8 00 00 00 C0 00 00 00 00
 23.485441 1  3D5             Rx   d 8 FF 08 00 00 FC 00 00 00
 23.505392 1  1B2             Rx   d 8 F0 F0 0F F3 C0 33 3C 00
 23.655456 1  1B1             Rx   d 8 04 01 01 00 01 01 00 04
 23.665468 1  36E             Rx   d 8 00 00 00 C0 00 00 00 00
 23.681088 1  716             Tx   d 8 03 22 F1 A0 00 00 00 00
 23.685429 1  3D5             Rx   d 8 FF 08 00 00 FC 00 00 00
 23.695478 1  71E             Rx   d 8 10 08 62 F1 A0 30 31 2E
 23.703378 1  716             Tx   d 8 30 08 0A 00 00 00 00 00
 23.705605 1  1B2             Rx   d 8 F0 F0 0F F3 C0 33 3C 00
 23.707243 1  71E             Rx   d 8 21 30 31 AA AA AA AA AA
 23.855459 1  1B1             Rx   d 8 04 01 01 00 01 01 00 04
 23.865469 1  36E             Rx   d 8 00 00 00 C0 00 00 00 00
 23.885476 1  3D5             Rx   d 8 FF 08 00 00 FC 00 00 00
 23.905407 1  1B2             Rx   d 8 F0 F0 0F F3 C0 33 3C 00
 24.000483 1  457             Rx   d 8 57 04 00 00 00 00 FF FF
 24.055472 1  1B1             Rx   d 8 04 01 01 00 01 01 00 04
 24.065453 1  36E             Rx   d 8 00 00 00 C0 00 00 00 00
 24.085467 1  3D5             Rx   d 8 FF 08 00 00 FC 00 00 00
 24.105404 1  1B2             Rx   d 8 F0 F0 0F F3 C0 33 3C 00
 24.255493 1  1B1             Rx   d 8 04 01 01 00 01 01 00 04
 24.265462 1  36E             Rx   d 8 00 00 00 C0 00 00 00 00
 24.285478 1  3D5             Rx   d 8 FF 08 00 00 FC 00 00 00
 24.305414 1  1B2             Rx   d 8 F0 F0 0F F3 C0 33 3C 00
 24.455491 1  1B1             Rx   d 8 04 01 01 00 01 01 00 04
 24.465476 1  36E             Rx   d 8 00 00 00 C0 00 00 00 00
 24.485535 1  3D5             Rx   d 8 FF 08 00 00 FC 00 00 00
 24.505566 1  1B2             Rx   d 8 F0 F0 0F F3 C0 33 3C 00
 24.655571 1  1B1             Rx   d 8 04 01 01 00 01 01 00 04
 24.665583 1  36E             Rx   d 8 00 00 00 C0 00 00 00 00
 24.685563 1  3D5             Rx   d 8 FF 08 00 00 FC 00 00 00
 24.705579 1  1B2             Rx   d 8 F0 F0 0F F3 C0 33 3C 00
 24.855588 1  1B1             Rx   d 8 04 01 01 00 01 01 00 04
 24.865566 1  36E             Rx   d 8 00 00 00 C0 00 00 00 00
 24.885573 1  3D5             Rx   d 8 FF 08 00 00 FC 00 00 00
 24.905598 1  1B2             Rx   d 8 F0 F0 0F F3 C0 33 3C 00
 25.000614 1  457             Rx   d 8 57 04 00 00 00 00 FF FF
 25.055602 1  1B1             Rx   d 8 04 01 01 00 01 01 00 04
 25.065563 1  36E             Rx   d 8 00 00 00 C0 00 00 00 00
 25.085593 1  3D5             Rx   d 8 FF 08 00 00 FC 00 00 00
 25.105584 1  1B2             Rx   d 8 F0 F0 0F F3 C0 33 3C 00
 25.255594 1  1B1             Rx   d 8 04 01 01 00 01 01 00 04
 25.265591 1  36E             Rx   d 8 00 00 00 C0 00 00 00 00
 25.285578 1  3D5             Rx   d 8 FF 08 00 00 FC 00 00 00
 25.305608 1  1B2             Rx   d 8 F0 F0 0F F3 C0 33 3C 00
 25.455632 1  1B1             Rx   d 8 04 01 01 00 01 01 00 04
 25.465587 1  36E             Rx   d 8 00 00 00 C0 00 00 00 00
 25.485576 1  3D5             Rx   d 8 FF 08 00 00 FC 00 00 00
 25.505577 1  1B2             Rx   d 8 F0 F0 0F F3 C0 33 3C 00
 25.655606 1  1B1             Rx   d 8 04 01 01 00 01 01 00 04
 25.665613 1  36E             Rx   d 8 00 00 00 C0 00 00 00 00
 25.685603 1  3D5             Rx   d 8 FF 08 00 00 FC 00 00 00
 25.705601 1  1B2             Rx   d 8 F0 F0 0F F3 C0 33 3C 00
 25.823507 1  716             Tx   d 8 03 22 F1 A1 00 00 00 00
 25.845897 1  71E             Rx   d 8 07 62 F1 A1 00 00 00 00
 25.855995 1  1B1             Rx   d 8 04 01 01 00 01 01 00 04
 25.865849 1  36E             Rx   d 8 00 00 00 C0 00 00 00 00
 25.885997 1  3D5             Rx   d 8 FF 08 00 00 FC 00 00 00
 25.905513 1  1B2             Rx   d 8 F0 F0 0F F3 C0 33 3C 00
 26.000533 1  457             Rx   d 8 57 04 00 00 00 00 FF FF
 26.055515 1  1B1             Rx   d 8 04 01 01 00 01 01 00 04
 26.065563 1  36E             Rx   d 8 00 00 00 C0 00 00 00 00
 26.085537 1  3D5             Rx   d 8 FF 08 00 00 FC 00 00 00
 26.105508 1  1B2             Rx   d 8 F0 F0 0F F3 C0 33 3C 00
 26.255516 1  1B1             Rx   d 8 04 01 01 00 01 01 00 04
 26.265567 1  36E             Rx   d 8 00 00 00 C0 00 00 00 00
 26.285526 1  3D5             Rx   d 8 FF 08 00 00 FC 00 00 00
 26.305502 1  1B2             Rx   d 8 F0 F0 0F F3 C0 33 3C 00
 26.455532 1  1B1             Rx   d 8 04 01 01 00 01 01 00 04
 26.465538 1  36E             Rx   d 8 00 00 00 C0 00 00 00 00
 26.485554 1  3D5             Rx   d 8 FF 08 00 00 FC 00 00 00
 26.505523 1  1B2             Rx   d 8 F0 F0 0F F3 C0 33 3C 00
 26.655520 1  1B1             Rx   d 8 04 01 01 00 01 01 00 04
 26.665555 1  36E             Rx   d 8 00 00 00 C0 00 00 00 00
 26.685560 1  3D5             Rx   d 8 FF 08 00 00 FC 00 00 00
 26.705512 1  1B2             Rx   d 8 F0 F0 0F F3 C0 33 3C 00
 26.855535 1  1B1             Rx   d 8 04 01 01 00 01 01 00 04
 26.865551 1  36E             Rx   d 8 00 00 00 C0 00 00 00 00
 26.885537 1  3D5             Rx   d 8 FF 08 00 00 FC 00 00 00
 26.905533 1  1B2             Rx   d 8 F0 F0 0F F3 C0 33 3C 00
 27.000560 1  457             Rx   d 8 57 04 00 00 00 00 FF FF
 27.055539 1  1B1             Rx   d 8 04 01 01 00 01 01 00 04
 27.065551 1  36E             Rx   d 8 00 00 00 C0 00 00 00 00
 27.085640 1  3D5             Rx   d 8 FF 08 00 00 FC 00 00 00
 27.105510 1  1B2             Rx   d 8 F0 F0 0F F3 C0 33 3C 00
 27.255539 1  1B1             Rx   d 8 04 01 01 00 01 01 00 04
 27.265558 1  36E             Rx   d 8 00 00 00 C0 00 00 00 00
 27.285544 1  3D5             Rx   d 8 FF 08 00 00 FC 00 00 00
 27.305521 1  1B2             Rx   d 8 F0 F0 0F F3 C0 33 3C 00
 27.455552 1  1B1             Rx   d 8 04 01 01 00 01 01 00 04
 27.465585 1  36E             Rx   d 8 00 00 00 C0 00 00 00 00
 27.485543 1  3D5             Rx   d 8 FF 08 00 00 FC 00 00 00
 27.505512 1  1B2             Rx   d 8 F0 F0 0F F3 C0 33 3C 00
 27.655554 1  1B1             Rx   d 8 04 01 01 00 01 01 00 04
 27.665576 1  36E             Rx   d 8 00 00 00 C0 00 00 00 00
 27.685556 1  3D5             Rx   d 8 FF 08 00 00 FC 00 00 00
 27.705512 1  1B2             Rx   d 8 F0 F0 0F F3 C0 33 3C 00
 27.855548 1  1B1             Rx   d 8 04 01 01 00 01 01 00 04
 27.865589 1  36E             Rx   d 8 00 00 00 C0 00 00 00 00
 27.885559 1  3D5             Rx   d 8 FF 08 00 00 FC 00 00 00
 27.905545 1  1B2             Rx   d 8 F0 F0 0F F3 C0 33 3C 00
 27.986703 1  716             Tx   d 8 03 22 F1 B0 00 00 00 00
 28.000651 1  457             Rx   d 8 57 04 00 00 00 00 FF FF
 28.005764 1  71E             Rx   d 8 04 62 F1 B0 01 AA AA AA
 28.055563 1  1B1             Rx   d 8 04 01 01 00 01 01 00 04
 28.065626 1  36E             Rx   d 8 00 00 00 C0 00 00 00 00
 28.085608 1  3D5             Rx   d 8 FF 08 00 00 FC 00 00 00
 28.105568 1  1B2             Rx   d 8 F0 F0 0F F3 C0 33 3C 00
 28.255579 1  1B1             Rx   d 8 04 01 01 00 01 01 00 04
 28.265627 1  36E             Rx   d 8 00 00 00 C0 00 00 00 00
 28.285579 1  3D5             Rx   d 8 FF 08 00 00 FC 00 00 00
 28.305544 1  1B2             Rx   d 8 F0 F0 0F F3 C0 33 3C 00
 28.455571 1  1B1             Rx   d 8 04 01 01 00 01 01 00 04
 28.465642 1  36E             Rx   d 8 00 00 00 C0 00 00 00 00
 28.485565 1  3D5             Rx   d 8 FF 08 00 00 FC 00 00 00
 28.505535 1  1B2             Rx   d 8 F0 F0 0F F3 C0 33 3C 00
 28.655581 1  1B1             Rx   d 8 04 01 01 00 01 01 00 04
 28.665626 1  36E             Rx   d 8 00 00 00 C0 00 00 00 00
 28.685630 1  3D5             Rx   d 8 FF 08 00 00 FC 00 00 00
 28.705541 1  1B2             Rx   d 8 F0 F0 0F F3 C0 33 3C 00
 28.855582 1  1B1             Rx   d 8 04 01 01 00 01 01 00 04
 28.865645 1  36E             Rx   d 8 00 00 00 C0 00 00 00 00
 28.885620 1  3D5             Rx   d 8 FF 08 00 00 FC 00 00 00
 28.905546 1  1B2             Rx   d 8 F0 F0 0F F3 C0 33 3C 00
 29.000597 1  457             Rx   d 8 57 04 00 00 00 00 FF FF
 29.055592 1  1B1             Rx   d 8 04 01 01 00 01 01 00 04
 29.065626 1  36E             Rx   d 8 00 00 00 C0 00 00 00 00
 29.085634 1  3D5             Rx   d 8 FF 08 00 00 FC 00 00 00
 29.105559 1  1B2             Rx   d 8 F0 F0 0F F3 C0 33 3C 00
 29.255592 1  1B1             Rx   d 8 04 01 01 00 01 01 00 04
 29.265637 1  36E             Rx   d 8 00 00 00 C0 00 00 00 00
 29.285675 1  3D5             Rx   d 8 FF 08 00 00 FC 00 00 00
 29.305545 1  1B2             Rx   d 8 F0 F0 0F F3 C0 33 3C 00
 29.455606 1  1B1             Rx   d 8 04 01 01 00 01 01 00 04
 29.465645 1  36E             Rx   d 8 00 00 00 C0 00 00 00 00
 29.485644 1  3D5             Rx   d 8 FF 08 00 00 FC 00 00 00
 29.505547 1  1B2             Rx   d 8 F0 F0 0F F3 C0 33 3C 00
 29.655608 1  1B1             Rx   d 8 04 01 01 00 01 01 00 04
 29.665638 1  36E             Rx   d 8 00 00 00 C0 00 00 00 00
 29.685669 1  3D5             Rx   d 8 FF 08 00 00 FC 00 00 00
 29.705560 1  1B2             Rx   d 8 F0 F0 0F F3 C0 33 3C 00
 29.855608 1  1B1             Rx   d 8 04 01 01 00 01 01 00 04
 29.865655 1  36E             Rx   d 8 00 00 00 C0 00 00 00 00
 29.885659 1  3D5             Rx   d 8 FF 08 00 00 FC 00 00 00
 29.905580 1  1B2             Rx   d 8 F0 F0 0F F3 C0 33 3C 00
 30.000621 1  457             Rx   d 8 57 04 00 00 00 00 FF FF
 30.055626 1  1B1             Rx   d 8 04 01 01 00 01 01 00 04
 30.065642 1  36E             Rx   d 8 00 00 00 C0 00 00 00 00
 30.085664 1  3D5             Rx   d 8 FF 08 00 00 FC 00 00 00
 30.105584 1  1B2             Rx   d 8 F0 F0 0F F3 C0 33 3C 00
 30.120070 1  716             Tx   d 8 03 22 F1 B1 00 00 00 00
 30.135617 1  71E             Rx   d 8 10 08 62 F1 B1 30 31 2E
 30.145839 1  716             Tx   d 8 30 08 0A 00 00 00 00 00
 30.150593 1  71E             Rx   d 8 21 30 31 AA AA AA AA AA
 30.255780 1  1B1             Rx   d 8 04 01 01 00 01 01 00 04
 30.265691 1  36E             Rx   d 8 00 00 00 C0 00 00 00 00
 30.285676 1  3D5             Rx   d 8 FF 08 00 00 FC 00 00 00
 30.305557 1  1B2             Rx   d 8 F0 F0 0F F3 C0 33 3C 00
 30.455631 1  1B1             Rx   d 8 04 01 01 00 01 01 00 04
 30.465677 1  36E             Rx   d 8 00 00 00 C0 00 00 00 00
 30.485677 1  3D5             Rx   d 8 FF 08 00 00 FC 00 00 00
 30.505577 1  1B2             Rx   d 8 F0 F0 0F F3 C0 33 3C 00
 30.655631 1  1B1             Rx   d 8 04 01 01 00 01 01 00 04
 30.665683 1  36E             Rx   d 8 00 00 00 C0 00 00 00 00
 30.685681 1  3D5             Rx   d 8 FF 08 00 00 FC 00 00 00
 30.705571 1  1B2             Rx   d 8 F0 F0 0F F3 C0 33 3C 00
 30.855634 1  1B1             Rx   d 8 04 01 01 00 01 01 00 04
 30.865670 1  36E             Rx   d 8 00 00 00 C0 00 00 00 00
 30.885682 1  3D5             Rx   d 8 FF 08 00 00 FC 00 00 00
 30.905774 1  1B2             Rx   d 8 F0 F0 0F F3 C0 33 3C 00
 31.000774 1  457             Rx   d 8 57 04 00 00 00 00 FF FF
 31.055749 1  1B1             Rx   d 8 04 01 01 00 01 01 00 04
 31.065744 1  36E             Rx   d 8 00 00 00 C0 00 00 00 00
 31.085772 1  3D5             Rx   d 8 FF 08 00 00 FC 00 00 00
 31.105756 1  1B2             Rx   d 8 F0 F0 0F F3 C0 33 3C 00
 31.255748 1  1B1             Rx   d 8 04 01 01 00 01 01 00 04
 31.265749 1  36E             Rx   d 8 00 00 00 C0 00 00 00 00
 31.285773 1  3D5             Rx   d 8 FF 08 00 00 FC 00 00 00
 31.305729 1  1B2             Rx   d 8 F0 F0 0F F3 C0 33 3C 00
 31.455767 1  1B1             Rx   d 8 04 01 01 00 01 01 00 04
 31.465747 1  36E             Rx   d 8 00 00 00 C0 00 00 00 00
 31.485764 1  3D5             Rx   d 8 FF 08 00 00 FC 00 00 00
 31.505747 1  1B2             Rx   d 8 F0 F0 0F F3 C0 33 3C 00
 31.655763 1  1B1             Rx   d 8 04 01 01 00 01 01 00 04
 31.665747 1  36E             Rx   d 8 00 00 00 C0 00 00 00 00
 31.685762 1  3D5             Rx   d 8 FF 08 00 00 FC 00 00 00
 31.705777 1  1B2             Rx   d 8 F0 F0 0F F3 C0 33 3C 00
 31.855785 1  1B1             Rx   d 8 04 01 01 00 01 01 00 04
 31.865758 1  36E             Rx   d 8 00 00 00 C0 00 00 00 00
 31.885767 1  3D5             Rx   d 8 FF 08 00 00 FC 00 00 00
 31.905808 1  1B2             Rx   d 8 F0 F0 0F F3 C0 33 3C 00
 32.000803 1  457             Rx   d 8 57 04 00 00 00 00 FF FF
 32.055757 1  1B1             Rx   d 8 04 01 01 00 01 01 00 04
 32.065786 1  36E             Rx   d 8 00 00 00 C0 00 00 00 00
 32.085773 1  3D5             Rx   d 8 FF 08 00 00 FC 00 00 00
 32.105773 1  1B2             Rx   d 8 F0 F0 0F F3 C0 33 3C 00
 32.255813 1  1B1             Rx   d 8 04 01 01 00 01 01 00 04
 32.263327 1  716             Tx   d 8 03 22 F1 97 00 00 00 00
 32.265813 1  36E             Rx   d 8 00 00 00 C0 00 00 00 00
 32.285902 1  3D5             Rx   d 8 FF 08 00 00 FC 00 00 00
 32.286987 1  71E             Rx   d 8 07 62 F1 97 4D 4B 42 44
 32.305909 1  1B2             Rx   d 8 F0 F0 0F F3 C0 33 3C 00
 32.455675 1  1B1             Rx   d 8 04 01 01 00 01 01 00 04
 32.465692 1  36E             Rx   d 8 00 00 00 C0 00 00 00 00
 32.485661 1  3D5             Rx   d 8 FF 08 00 00 FC 00 00 00
 32.505677 1  1B2             Rx   d 8 F0 F0 0F F3 C0 33 3C 00
 32.655686 1  1B1             Rx   d 8 04 01 01 00 01 01 00 04
 32.665704 1  36E             Rx   d 8 00 00 00 C0 00 00 00 00
 32.685673 1  3D5             Rx   d 8 FF 08 00 00 FC 00 00 00
 32.705679 1  1B2             Rx   d 8 F0 F0 0F F3 C0 33 3C 00
 32.855690 1  1B1             Rx   d 8 04 01 01 00 01 01 00 04
 32.865708 1  36E             Rx   d 8 00 00 00 C0 00 00 00 00
 32.885680 1  3D5             Rx   d 8 FF 08 00 00 FC 00 00 00
 32.905730 1  1B2             Rx   d 8 F0 F0 0F F3 C0 33 3C 00
 33.000721 1  457             Rx   d 8 57 04 00 00 00 00 FF FF
 33.055694 1  1B1             Rx   d 8 04 01 01 00 01 01 00 04
 33.065747 1  36E             Rx   d 8 00 00 00 C0 00 00 00 00
 33.085719 1  3D5             Rx   d 8 FF 08 00 00 FC 00 00 00
 33.105664 1  1B2             Rx   d 8 F0 F0 0F F3 C0 33 3C 00
 33.255695 1  1B1             Rx   d 8 04 01 01 00 01 01 00 04
 33.265714 1  36E             Rx   d 8 00 00 00 C0 00 00 00 00
 33.285704 1  3D5             Rx   d 8 FF 08 00 00 FC 00 00 00
 33.305661 1  1B2             Rx   d 8 F0 F0 0F F3 C0 33 3C 00
 33.455698 1  1B1             Rx   d 8 04 01 01 00 01 01 00 04
 33.465696 1  36E             Rx   d 8 00 00 00 C0 00 00 00 00
 33.485729 1  3D5             Rx   d 8 FF 08 00 00 FC 00 00 00
 33.505665 1  1B2             Rx   d 8 F0 F0 0F F3 C0 33 3C 00
 33.655716 1  1B1             Rx   d 8 04 01 01 00 01 01 00 04
 33.665713 1  36E             Rx   d 8 00 00 00 C0 00 00 00 00
 33.685697 1  3D5             Rx   d 8 FF 08 00 00 FC 00 00 00
 33.705671 1  1B2             Rx   d 8 F0 F0 0F F3 C0 33 3C 00
 33.855715 1  1B1             Rx   d 8 04 01 01 00 01 01 00 04
 33.865721 1  36E             Rx   d 8 00 00 00 C0 00 00 00 00
 33.885700 1  3D5             Rx   d 8 FF 08 00 00 FC 00 00 00
 33.905679 1  1B2             Rx   d 8 F0 F0 0F F3 C0 33 3C 00
 34.000730 1  457             Rx   d 8 57 04 00 00 00 00 FF FF
 34.055709 1  1B1             Rx   d 8 04 01 01 00 01 01 00 04
 34.065718 1  36E             Rx   d 8 00 00 00 C0 00 00 00 00
 34.085722 1  3D5             Rx   d 8 FF 08 00 00 FC 00 00 00
 34.105675 1  1B2             Rx   d 8 F0 F0 0F F3 C0 33 3C 00
 34.255730 1  1B1             Rx   d 8 04 01 01 00 01 01 00 04
 34.265717 1  36E             Rx   d 8 00 00 00 C0 00 00 00 00
 34.285738 1  3D5             Rx   d 8 FF 08 00 00 FC 00 00 00
 34.305677 1  1B2             Rx   d 8 F0 F0 0F F3 C0 33 3C 00
 34.417629 1  716             Tx   d 8 03 22 F1 C1 00 00 00 00
 34.435768 1  71E             Rx   d 8 10 23 62 F1 C1 A6 32 F7
 34.445822 1  716             Tx   d 8 30 08 0A 00 00 00 00 00
 34.450692 1  71E             Rx   d 8 21 CD 4D F6 CD A6 04 EB
 34.455793 1  1B1             Rx   d 8 04 01 01 00 01 01 00 04
 34.465782 1  36E             Rx   d 8 00 00 00 C0 00 00 00 00
 34.466899 1  71E             Rx   d 8 22 7E 3A 2E 85 0A 39 2D
 34.480758 1  71E             Rx   d 8 23 6D F1 C0 AA 2C 5A F0
 34.485791 1  3D5             Rx   d 8 FF 08 00 00 FC 00 00 00
 34.495682 1  71E             Rx   d 8 24 13 B5 45 F5 BC C9 D6
 34.505772 1  1B2             Rx   d 8 F0 F0 0F F3 C0 33 3C 00
 34.510794 1  71E             Rx   d 8 25 FD AA AA AA AA AA AA
 34.655735 1  1B1             Rx   d 8 04 01 01 00 01 01 00 04
 34.665739 1  36E             Rx   d 8 00 00 00 C0 00 00 00 00
 34.685746 1  3D5             Rx   d 8 FF 08 00 00 FC 00 00 00
 34.705701 1  1B2             Rx   d 8 F0 F0 0F F3 C0 33 3C 00
 34.855733 1  1B1             Rx   d 8 04 01 01 00 01 01 00 04
 34.865742 1  36E             Rx   d 8 00 00 00 C0 00 00 00 00
 34.885738 1  3D5             Rx   d 8 FF 08 00 00 FC 00 00 00
 34.905699 1  1B2             Rx   d 8 F0 F0 0F F3 C0 33 3C 00
