date Thu May 15 11:56:24.614 AM 2025
base hex  timestamps absolute
internal events logged
Begin Triggerblock Thu May 15 11:56:24.651 AM 2025
 0.000000 Start of measurement
 0.000000 1  1B1             Rx   d 8 04 01 01 00 01 01 00 04
 0.010048 1  36E             Rx   d 8 00 00 00 C0 00 00 00 00
 0.029999 1  3D5             Rx   d 8 FF 08 00 00 FC 00 00 00
 0.049970 1  1B2             Rx   d 8 F0 F0 0F F3 C0 33 3C 00
 0.184095 1  716             Tx   d 8 02 10 01 00 00 00 00 00
 0.200029 1  1B1             Rx   d 8 04 01 01 00 01 01 00 04
 0.201267 1  71E             Rx   d 8 06 50 01 00 32 01 F4 AA
 0.210018 1  36E             Rx   d 8 00 00 00 C0 00 00 00 00
 0.230020 1  3D5             Rx   d 8 FF 08 00 00 FC 00 00 00
 0.250171 1  1B2             Rx   d 8 F0 F0 0F F3 C0 33 3C 00
 0.289458 1  716             Tx   d 8 02 10 01 00 00 00 00 00
 0.310007 1  71E             Rx   d 8 06 50 01 00 32 01 F4 AA
 0.399983 1  1B1             Rx   d 8 04 01 01 00 01 01 00 04
 0.410015 1  36E             Rx   d 8 00 00 00 C0 00 00 00 00
 0.430013 1  3D5             Rx   d 8 FF 08 00 00 FC 00 00 00
 0.449970 1  1B2             Rx   d 8 F0 F0 0F F3 C0 33 3C 00
 0.599972 1  1B1             Rx   d 8 04 01 01 00 01 01 00 04
 0.610021 1  36E             Rx   d 8 00 00 00 C0 00 00 00 00
 0.630021 1  3D5             Rx   d 8 FF 08 00 00 FC 00 00 00
 0.649962 1  1B2             Rx   d 8 F0 F0 0F F3 C0 33 3C 00
 0.745022 1  457             Rx   d 8 57 04 00 00 00 00 FF FF
 0.799988 1  1B1             Rx   d 8 04 01 01 00 01 01 00 04
 0.810029 1  36E             Rx   d 8 00 00 00 C0 00 00 00 00
 0.830012 1  3D5             Rx   d 8 FF 08 00 00 FC 00 00 00
 0.849968 1  1B2             Rx   d 8 F0 F0 0F F3 C0 33 3C 00
 1.000004 1  1B1             Rx   d 8 04 01 01 00 01 01 00 04
 1.010026 1  36E             Rx   d 8 00 00 00 C0 00 00 00 00
 1.030008 1  3D5             Rx   d 8 FF 08 00 00 FC 00 00 00
 1.049975 1  1B2             Rx   d 8 F0 F0 0F F3 C0 33 3C 00
 1.200005 1  1B1             Rx   d 8 04 01 01 00 01 01 00 04
 1.210030 1  36E             Rx   d 8 00 00 00 C0 00 00 00 00
 1.230032 1  3D5             Rx   d 8 FF 08 00 00 FC 00 00 00
 1.249985 1  1B2             Rx   d 8 F0 F0 0F F3 C0 33 3C 00
 1.399988 1  1B1             Rx   d 8 04 01 01 00 01 01 00 04
 1.401146 1  716             Tx   d 8 03 22 F1 DD 00 00 00 00
 1.410050 1  36E             Rx   d 8 00 00 00 C0 00 00 00 00
 1.420058 1  71E             Rx   d 8 10 0B 62 F1 DD 30 31 2E
 1.430061 1  3D5             Rx   d 8 FF 08 00 00 FC 00 00 00
 1.431257 1  716             Tx   d 8 30 08 0A 00 00 00 00 00
 1.435044 1  71E             Rx   d 8 21 30 31 2E 30 30 AA AA
 1.449984 1  1B2             Rx   d 8 F0 F0 0F F3 C0 33 3C 00
 1.600018 1  1B1             Rx   d 8 04 01 01 00 01 01 00 04
 1.610042 1  36E             Rx   d 8 00 00 00 C0 00 00 00 00
 1.630026 1  3D5             Rx   d 8 FF 08 00 00 FC 00 00 00
 1.649972 1  1B2             Rx   d 8 F0 F0 0F F3 C0 33 3C 00
 1.745025 1  457             Rx   d 8 57 04 00 00 00 00 FF FF
 1.800012 1  1B1             Rx   d 8 04 01 01 00 01 01 00 04
 1.810043 1  36E             Rx   d 8 00 00 00 C0 00 00 00 00
 1.830020 1  3D5             Rx   d 8 FF 08 00 00 FC 00 00 00
 1.849974 1  1B2             Rx   d 8 F0 F0 0F F3 C0 33 3C 00
 2.000013 1  1B1             Rx   d 8 04 01 01 00 01 01 00 04
 2.010047 1  36E             Rx   d 8 00 00 00 C0 00 00 00 00
 2.030019 1  3D5             Rx   d 8 FF 08 00 00 FC 00 00 00
 2.049976 1  1B2             Rx   d 8 F0 F0 0F F3 C0 33 3C 00
 2.200017 1  1B1             Rx   d 8 04 01 01 00 01 01 00 04
 2.210049 1  36E             Rx   d 8 00 00 00 C0 00 00 00 00
 2.230050 1  3D5             Rx   d 8 FF 08 00 00 FC 00 00 00
 2.249974 1  1B2             Rx   d 8 F0 F0 0F F3 C0 33 3C 00
 2.400126 1  1B1             Rx   d 8 04 01 01 00 01 01 00 04
 2.410162 1  36E             Rx   d 8 00 00 00 C0 00 00 00 00
 2.430150 1  3D5             Rx   d 8 FF 08 00 00 FC 00 00 00
 2.450088 1  1B2             Rx   d 8 F0 F0 0F F3 C0 33 3C 00
 2.600125 1  1B1             Rx   d 8 04 01 01 00 01 01 00 04
 2.610162 1  36E             Rx   d 8 00 00 00 C0 00 00 00 00
 2.630150 1  3D5             Rx   d 8 FF 08 00 00 FC 00 00 00
 2.650077 1  1B2             Rx   d 8 F0 F0 0F F3 C0 33 3C 00
 2.745138 1  457             Rx   d 8 57 04 00 00 00 00 FF FF
 2.799203 1  716             Tx   d 8 03 22 F1 DD 00 00 00 00
 2.800563 1  1B1             Rx   d 8 04 01 01 00 01 01 00 04
 2.810183 1  36E             Rx   d 8 00 00 00 C0 00 00 00 00
 2.820067 1  71E             Rx   d 8 10 0B 62 F1 DD 30 31 2E
 2.828080 1  716             Tx   d 8 30 08 0A 00 00 00 00 00
 2.830146 1  3D5             Rx   d 8 FF 08 00 00 FC 00 00 00
 2.831262 1  71E             Rx   d 8 21 30 31 2E 30 30 AA AA
 2.850111 1  1B2             Rx   d 8 F0 F0 0F F3 C0 33 3C 00
 2.901139 1  716             Tx   d 8 03 22 F1 DD 00 00 00 00
 2.920093 1  71E             Rx   d 8 10 0B 62 F1 DD 30 31 2E
 2.933398 1  716             Tx   d 8 30 08 0A 00 00 00 00 00
 2.935108 1  71E             Rx   d 8 21 30 31 2E 30 30 AA AA
 3.000070 1  1B1             Rx   d 8 04 01 01 00 01 01 00 04
 3.010096 1  36E             Rx   d 8 00 00 00 C0 00 00 00 00
 3.030138 1  3D5             Rx   d 8 FF 08 00 00 FC 00 00 00
 3.050016 1  1B2             Rx   d 8 F0 F0 0F F3 C0 33 3C 00
 3.200028 1  1B1             Rx   d 8 04 01 01 00 01 01 00 04
 3.210071 1  36E             Rx   d 8 00 00 00 C0 00 00 00 00
 3.230060 1  3D5             Rx   d 8 FF 08 00 00 FC 00 00 00
 3.249985 1  1B2             Rx   d 8 F0 F0 0F F3 C0 33 3C 00
 3.400057 1  1B1             Rx   d 8 04 01 01 00 01 01 00 04
 3.410055 1  36E             Rx   d 8 00 00 00 C0 00 00 00 00
 3.430050 1  3D5             Rx   d 8 FF 08 00 00 FC 00 00 00
 3.450015 1  1B2             Rx   d 8 F0 F0 0F F3 C0 33 3C 00
 3.552580 1  716             Tx   d 8 03 22 F1 00 00 00 00 00
 3.570050 1  71E             Rx   d 8 06 62 F1 00 25 04 01 AA
 3.600025 1  1B1             Rx   d 8 04 01 01 00 01 01 00 04
 3.610205 1  36E             Rx   d 8 00 00 00 C0 00 00 00 00
 3.630066 1  3D5             Rx   d 8 FF 08 00 00 FC 00 00 00
 3.649997 1  1B2             Rx   d 8 F0 F0 0F F3 C0 33 3C 00
 3.745061 1  457             Rx   d 8 57 04 00 00 00 00 FF FF
 3.800039 1  1B1             Rx   d 8 04 01 01 00 01 01 00 04
 3.810069 1  36E             Rx   d 8 00 00 00 C0 00 00 00 00
 3.830057 1  3D5             Rx   d 8 FF 08 00 00 FC 00 00 00
 3.850004 1  1B2             Rx   d 8 F0 F0 0F F3 C0 33 3C 00
 4.000034 1  1B1             Rx   d 8 04 01 01 00 01 01 00 04
 4.010072 1  36E             Rx   d 8 00 00 00 C0 00 00 00 00
 4.030065 1  3D5             Rx   d 8 FF 08 00 00 FC 00 00 00
 4.050002 1  1B2             Rx   d 8 F0 F0 0F F3 C0 33 3C 00
 4.200051 1  1B1             Rx   d 8 04 01 01 00 01 01 00 04
 4.210080 1  36E             Rx   d 8 00 00 00 C0 00 00 00 00
 4.230075 1  3D5             Rx   d 8 FF 08 00 00 FC 00 00 00
 4.250002 1  1B2             Rx   d 8 F0 F0 0F F3 C0 33 3C 00
 4.400041 1  1B1             Rx   d 8 04 01 01 00 01 01 00 04
 4.410067 1  36E             Rx   d 8 00 00 00 C0 00 00 00 00
 4.430073 1  3D5             Rx   d 8 FF 08 00 00 FC 00 00 00
 4.450003 1  1B2             Rx   d 8 F0 F0 0F F3 C0 33 3C 00
 4.600058 1  1B1             Rx   d 8 04 01 01 00 01 01 00 04
 4.610070 1  36E             Rx   d 8 00 00 00 C0 00 00 00 00
 4.630078 1  3D5             Rx   d 8 FF 08 00 00 FC 00 00 00
 4.650013 1  1B2             Rx   d 8 F0 F0 0F F3 C0 33 3C 00
 4.745070 1  457             Rx   d 8 57 04 00 00 00 00 FF FF
 4.800060 1  1B1             Rx   d 8 04 01 01 00 01 01 00 04
 4.810088 1  36E             Rx   d 8 00 00 00 C0 00 00 00 00
 4.830070 1  3D5             Rx   d 8 FF 08 00 00 FC 00 00 00
 4.850029 1  1B2             Rx   d 8 F0 F0 0F F3 C0 33 3C 00
 5.000049 1  1B1             Rx   d 8 04 01 01 00 01 01 00 04
 5.010084 1  36E             Rx   d 8 00 00 00 C0 00 00 00 00
 5.030087 1  3D5             Rx   d 8 FF 08 00 00 FC 00 00 00
 5.050013 1  1B2             Rx   d 8 F0 F0 0F F3 C0 33 3C 00
 5.200054 1  1B1             Rx   d 8 04 01 01 00 01 01 00 04
 5.210086 1  36E             Rx   d 8 00 00 00 C0 00 00 00 00
 5.230087 1  3D5             Rx   d 8 FF 08 00 00 FC 00 00 00
 5.250027 1  1B2             Rx   d 8 F0 F0 0F F3 C0 33 3C 00
 5.399972 1  716             Tx   d 8 03 22 F1 00 00 00 00 00
 5.401224 1  1B1             Rx   d 8 04 01 01 00 01 01 00 04
 5.410089 1  36E             Rx   d 8 00 00 00 C0 00 00 00 00
 5.420049 1  71E             Rx   d 8 06 62 F1 00 25 04 01 AA
 5.430078 1  3D5             Rx   d 8 FF 08 00 00 FC 00 00 00
 5.450027 1  1B2             Rx   d 8 F0 F0 0F F3 C0 33 3C 00
 5.504102 1  716             Tx   d 8 03 22 F1 00 00 00 00 00
 5.520057 1  71E             Rx   d 8 06 62 F1 00 25 04 01 AA
 5.600063 1  1B1             Rx   d 8 04 01 01 00 01 01 00 04
 5.610095 1  36E             Rx   d 8 00 00 00 C0 00 00 00 00
 5.630086 1  3D5             Rx   d 8 FF 08 00 00 FC 00 00 00
 5.650028 1  1B2             Rx   d 8 F0 F0 0F F3 C0 33 3C 00
 5.690205 1  716             Tx   d 8 03 22 F1 8B 00 00 00 00
 5.710075 1  71E             Rx   d 8 07 62 F1 8B 00 00 00 00
 5.745116 1  457             Rx   d 8 57 04 00 00 00 00 FF FF
 5.800063 1  1B1             Rx   d 8 04 01 01 00 01 01 00 04
 5.810102 1  36E             Rx   d 8 00 00 00 C0 00 00 00 00
 5.830082 1  3D5             Rx   d 8 FF 08 00 00 FC 00 00 00
 5.850031 1  1B2             Rx   d 8 F0 F0 0F F3 C0 33 3C 00
 6.000055 1  1B1             Rx   d 8 04 01 01 00 01 01 00 04
 6.010092 1  36E             Rx   d 8 00 00 00 C0 00 00 00 00
 6.030092 1  3D5             Rx   d 8 FF 08 00 00 FC 00 00 00
 6.050026 1  1B2             Rx   d 8 F0 F0 0F F3 C0 33 3C 00
 6.200074 1  1B1             Rx   d 8 04 01 01 00 01 01 00 04
 6.210099 1  36E             Rx   d 8 00 00 00 C0 00 00 00 00
 6.230102 1  3D5             Rx   d 8 FF 08 00 00 FC 00 00 00
 6.250040 1  1B2             Rx   d 8 F0 F0 0F F3 C0 33 3C 00
 6.400078 1  1B1             Rx   d 8 04 01 01 00 01 01 00 04
 6.410099 1  36E             Rx   d 8 00 00 00 C0 00 00 00 00
 6.430091 1  3D5             Rx   d 8 FF 08 00 00 FC 00 00 00
 6.450041 1  1B2             Rx   d 8 F0 F0 0F F3 C0 33 3C 00
 6.600079 1  1B1             Rx   d 8 04 01 01 00 01 01 00 04
 6.610099 1  36E             Rx   d 8 00 00 00 C0 00 00 00 00
 6.630099 1  3D5             Rx   d 8 FF 08 00 00 FC 00 00 00
 6.650044 1  1B2             Rx   d 8 F0 F0 0F F3 C0 33 3C 00
 6.745100 1  457             Rx   d 8 57 04 00 00 00 00 FF FF
 6.800099 1  1B1             Rx   d 8 04 01 01 00 01 01 00 04
 6.810103 1  36E             Rx   d 8 00 00 00 C0 00 00 00 00
 6.830108 1  3D5             Rx   d 8 FF 08 00 00 FC 00 00 00
 6.850055 1  1B2             Rx   d 8 F0 F0 0F F3 C0 33 3C 00
 7.000078 1  1B1             Rx   d 8 04 01 01 00 01 01 00 04
 7.010106 1  36E             Rx   d 8 00 00 00 C0 00 00 00 00
 7.030120 1  3D5             Rx   d 8 FF 08 00 00 FC 00 00 00
 7.050044 1  1B2             Rx   d 8 F0 F0 0F F3 C0 33 3C 00
 7.200096 1  1B1             Rx   d 8 04 01 01 00 01 01 00 04
 7.210104 1  36E             Rx   d 8 00 00 00 C0 00 00 00 00
 7.230113 1  3D5             Rx   d 8 FF 08 00 00 FC 00 00 00
 7.250053 1  1B2             Rx   d 8 F0 F0 0F F3 C0 33 3C 00
 7.400085 1  1B1             Rx   d 8 04 01 01 00 01 01 00 04
 7.410115 1  36E             Rx   d 8 00 00 00 C0 00 00 00 00
 7.430103 1  3D5             Rx   d 8 FF 08 00 00 FC 00 00 00
 7.450063 1  1B2             Rx   d 8 F0 F0 0F F3 C0 33 3C 00
 7.600092 1  1B1             Rx   d 8 04 01 01 00 01 01 00 04
 7.610115 1  36E             Rx   d 8 00 00 00 C0 00 00 00 00
 7.630115 1  3D5             Rx   d 8 FF 08 00 00 FC 00 00 00
 7.650044 1  1B2             Rx   d 8 F0 F0 0F F3 C0 33 3C 00
 7.745111 1  457             Rx   d 8 57 04 00 00 00 00 FF FF
 7.800099 1  1B1             Rx   d 8 04 01 01 00 01 01 00 04
 7.810120 1  36E             Rx   d 8 00 00 00 C0 00 00 00 00
 7.828799 1  716             Tx   d 8 03 22 F1 8C 00 00 00 00
 7.830163 1  3D5             Rx   d 8 FF 08 00 00 FC 00 00 00
 7.850532 1  1B2             Rx   d 8 F0 F0 0F F3 C0 33 3C 00
 7.851683 1  71E             Rx   d 8 10 0D 62 F1 8C 00 00 00
 7.861165 1  716             Tx   d 8 30 08 0A 00 00 00 00 00
 7.865160 1  71E             Rx   d 8 21 00 00 00 00 00 00 00
 8.000166 1  1B1             Rx   d 8 04 01 01 00 01 01 00 04
 8.004801 1  716             Tx   d 8 03 22 F1 8B 00 00 00 00
 8.010176 1  36E             Rx   d 8 00 00 00 C0 00 00 00 00
 8.020116 1  71E             Rx   d 8 07 62 F1 8B 00 00 00 00
 8.030278 1  3D5             Rx   d 8 FF 08 00 00 FC 00 00 00
 8.050059 1  1B2             Rx   d 8 F0 F0 0F F3 C0 33 3C 00
 8.122477 1  716             Tx   d 8 03 22 F1 8B 00 00 00 00
 8.140209 1  71E             Rx   d 8 07 62 F1 8B 00 00 00 00
 8.200161 1  1B1             Rx   d 8 04 01 01 00 01 01 00 04
 8.210192 1  36E             Rx   d 8 00 00 00 C0 00 00 00 00
 8.230187 1  3D5             Rx   d 8 FF 08 00 00 FC 00 00 00
 8.250129 1  1B2             Rx   d 8 F0 F0 0F F3 C0 33 3C 00
 8.400207 1  1B1             Rx   d 8 04 01 01 00 01 01 00 04
 8.410241 1  36E             Rx   d 8 00 00 00 C0 00 00 00 00
 8.430230 1  3D5             Rx   d 8 FF 08 00 00 FC 00 00 00
 8.450179 1  1B2             Rx   d 8 F0 F0 0F F3 C0 33 3C 00
 8.600179 1  1B1             Rx   d 8 04 01 01 00 01 01 00 04
 8.610193 1  36E             Rx   d 8 00 00 00 C0 00 00 00 00
 8.630194 1  3D5             Rx   d 8 FF 08 00 00 FC 00 00 00
 8.650149 1  1B2             Rx   d 8 F0 F0 0F F3 C0 33 3C 00
 8.745185 1  457             Rx   d 8 57 04 00 00 00 00 FF FF
 8.800150 1  1B1             Rx   d 8 04 01 01 00 01 01 00 04
 8.810172 1  36E             Rx   d 8 00 00 00 C0 00 00 00 00
 8.830163 1  3D5             Rx   d 8 FF 08 00 00 FC 00 00 00
 8.850119 1  1B2             Rx   d 8 F0 F0 0F F3 C0 33 3C 00
 9.000208 1  1B1             Rx   d 8 04 01 01 00 01 01 00 04
 9.010225 1  36E             Rx   d 8 00 00 00 C0 00 00 00 00
 9.030238 1  3D5             Rx   d 8 FF 08 00 00 FC 00 00 00
 9.050189 1  1B2             Rx   d 8 F0 F0 0F F3 C0 33 3C 00
 9.200204 1  1B1             Rx   d 8 04 01 01 00 01 01 00 04
 9.210253 1  36E             Rx   d 8 00 00 00 C0 00 00 00 00
 9.230233 1  3D5             Rx   d 8 FF 08 00 00 FC 00 00 00
 9.250192 1  1B2             Rx   d 8 F0 F0 0F F3 C0 33 3C 00
 9.400261 1  1B1             Rx   d 8 04 01 01 00 01 01 00 04
 9.410253 1  36E             Rx   d 8 00 00 00 C0 00 00 00 00
 9.430216 1  3D5             Rx   d 8 FF 08 00 00 FC 00 00 00
 9.450166 1  1B2             Rx   d 8 F0 F0 0F F3 C0 33 3C 00
 9.600233 1  1B1             Rx   d 8 04 01 01 00 01 01 00 04
 9.610279 1  36E             Rx   d 8 00 00 00 C0 00 00 00 00
 9.630253 1  3D5             Rx   d 8 FF 08 00 00 FC 00 00 00
 9.650189 1  1B2             Rx   d 8 F0 F0 0F F3 C0 33 3C 00
 9.745261 1  457             Rx   d 8 57 04 00 00 00 00 FF FF
 9.800223 1  1B1             Rx   d 8 04 01 01 00 01 01 00 04
 9.810266 1  36E             Rx   d 8 00 00 00 C0 00 00 00 00
 9.830238 1  3D5             Rx   d 8 FF 08 00 00 FC 00 00 00
 9.850171 1  1B2             Rx   d 8 F0 F0 0F F3 C0 33 3C 00
 9.983083 1  716             Tx   d 8 03 22 F1 A0 00 00 00 00
 10.000297 1  1B1             Rx   d 8 04 01 01 00 01 01 00 04
 10.001583 1  71E             Rx   d 8 10 08 62 F1 A0 30 31 2E
 10.010374 1  36E             Rx   d 8 00 00 00 C0 00 00 00 00
 10.012901 1  716             Tx   d 8 30 08 0A 00 00 00 00 00
 10.015666 1  71E             Rx   d 8 21 30 31 AA AA AA AA AA
 10.030444 1  3D5             Rx   d 8 FF 08 00 00 FC 00 00 00
 10.050205 1  1B2             Rx   d 8 F0 F0 0F F3 C0 33 3C 00
 10.200105 1  1B1             Rx   d 8 04 01 01 00 01 01 00 04
 10.210164 1  36E             Rx   d 8 00 00 00 C0 00 00 00 00
 10.230151 1  3D5             Rx   d 8 FF 08 00 00 FC 00 00 00
 10.250110 1  1B2             Rx   d 8 F0 F0 0F F3 C0 33 3C 00
 10.400129 1  1B1             Rx   d 8 04 01 01 00 01 01 00 04
 10.410164 1  36E             Rx   d 8 00 00 00 C0 00 00 00 00
 10.430159 1  3D5             Rx   d 8 FF 08 00 00 FC 00 00 00
 10.450090 1  1B2             Rx   d 8 F0 F0 0F F3 C0 33 3C 00
 10.600135 1  1B1             Rx   d 8 04 01 01 00 01 01 00 04
 10.610172 1  36E             Rx   d 8 00 00 00 C0 00 00 00 00
 10.630161 1  3D5             Rx   d 8 FF 08 00 00 FC 00 00 00
 10.650191 1  1B2             Rx   d 8 F0 F0 0F F3 C0 33 3C 00
 10.657608 1  716             Tx   d 8 03 22 F1 8C 00 00 00 00
 10.680129 1  71E             Rx   d 8 10 0D 62 F1 8C 00 00 00
 10.684967 1  716             Tx   d 8 30 08 0A 00 00 00 00 00
 10.690193 1  71E             Rx   d 8 21 00 00 00 00 00 00 00
 10.745155 1  457             Rx   d 8 57 04 00 00 00 00 FF FF
 10.763041 1  716             Tx   d 8 03 22 F1 8C 00 00 00 00
 10.780410 1  71E             Rx   d 8 10 0D 62 F1 8C 00 00 00
 10.787065 1  716             Tx   d 8 30 08 0A 00 00 00 00 00
 10.790339 1  71E             Rx   d 8 21 00 00 00 00 00 00 00
 10.800131 1  1B1             Rx   d 8 04 01 01 00 01 01 00 04
 10.810246 1  36E             Rx   d 8 00 00 00 C0 00 00 00 00
 10.830146 1  3D5             Rx   d 8 FF 08 00 00 FC 00 00 00
 10.850097 1  1B2             Rx   d 8 F0 F0 0F F3 C0 33 3C 00
 11.000145 1  1B1             Rx   d 8 04 01 01 00 01 01 00 04
 11.010178 1  36E             Rx   d 8 00 00 00 C0 00 00 00 00
 11.030163 1  3D5             Rx   d 8 FF 08 00 00 FC 00 00 00
 11.050104 1  1B2             Rx   d 8 F0 F0 0F F3 C0 33 3C 00
 11.200159 1  1B1             Rx   d 8 04 01 01 00 01 01 00 04
 11.210159 1  36E             Rx   d 8 00 00 00 C0 00 00 00 00
 11.230157 1  3D5             Rx   d 8 FF 08 00 00 FC 00 00 00
 11.250112 1  1B2             Rx   d 8 F0 F0 0F F3 C0 33 3C 00
 11.400141 1  1B1             Rx   d 8 04 01 01 00 01 01 00 04
 11.410178 1  36E             Rx   d 8 00 00 00 C0 00 00 00 00
 11.430170 1  3D5             Rx   d 8 FF 08 00 00 FC 00 00 00
 11.450096 1  1B2             Rx   d 8 F0 F0 0F F3 C0 33 3C 00
 11.600141 1  1B1             Rx   d 8 04 01 01 00 01 01 00 04
 11.610186 1  36E             Rx   d 8 00 00 00 C0 00 00 00 00
 11.630173 1  3D5             Rx   d 8 FF 08 00 00 FC 00 00 00
 11.650100 1  1B2             Rx   d 8 F0 F0 0F F3 C0 33 3C 00
 11.745182 1  457             Rx   d 8 57 04 00 00 00 00 FF FF
 11.800149 1  1B1             Rx   d 8 04 01 01 00 01 01 00 04
 11.810178 1  36E             Rx   d 8 00 00 00 C0 00 00 00 00
 11.830171 1  3D5             Rx   d 8 FF 08 00 00 FC 00 00 00
 11.850115 1  1B2             Rx   d 8 F0 F0 0F F3 C0 33 3C 00
 12.000148 1  1B1             Rx   d 8 04 01 01 00 01 01 00 04
 12.010180 1  36E             Rx   d 8 00 00 00 C0 00 00 00 00
 12.030171 1  3D5             Rx   d 8 FF 08 00 00 FC 00 00 00
 12.050118 1  1B2             Rx   d 8 F0 F0 0F F3 C0 33 3C 00
 12.154561 1  716             Tx   d 8 03 22 F1 A1 00 00 00 00
 12.170316 1  71E             Rx   d 8 07 62 F1 A1 00 00 00 00
 12.200145 1  1B1             Rx   d 8 04 01 01 00 01 01 00 04
 12.210308 1  36E             Rx   d 8 00 00 00 C0 00 00 00 00
 12.230163 1  3D5             Rx   d 8 FF 08 00 00 FC 00 00 00
 12.250118 1  1B2             Rx   d 8 F0 F0 0F F3 C0 33 3C 00
 12.400154 1  1B1             Rx   d 8 04 01 01 00 01 01 00 04
 12.410192 1  36E             Rx   d 8 00 00 00 C0 00 00 00 00
 12.430205 1  3D5             Rx   d 8 FF 08 00 00 FC 00 00 00
 12.450120 1  1B2             Rx   d 8 F0 F0 0F F3 C0 33 3C 00
 12.600158 1  1B1             Rx   d 8 04 01 01 00 01 01 00 04
 12.610189 1  36E             Rx   d 8 00 00 00 C0 00 00 00 00
 12.630183 1  3D5             Rx   d 8 FF 08 00 00 FC 00 00 00
 12.650126 1  1B2             Rx   d 8 F0 F0 0F F3 C0 33 3C 00
 12.745186 1  457             Rx   d 8 57 04 00 00 00 00 FF FF
 12.800165 1  1B1             Rx   d 8 04 01 01 00 01 01 00 04
 12.810191 1  36E             Rx   d 8 00 00 00 C0 00 00 00 00
 12.830171 1  3D5             Rx   d 8 FF 08 00 00 FC 00 00 00
 12.850124 1  1B2             Rx   d 8 F0 F0 0F F3 C0 33 3C 00
 13.000172 1  1B1             Rx   d 8 04 01 01 00 01 01 00 04
 13.010192 1  36E             Rx   d 8 00 00 00 C0 00 00 00 00
 13.030178 1  3D5             Rx   d 8 FF 08 00 00 FC 00 00 00
 13.050140 1  1B2             Rx   d 8 F0 F0 0F F3 C0 33 3C 00
 13.200175 1  1B1             Rx   d 8 04 01 01 00 01 01 00 04
 13.210192 1  36E             Rx   d 8 00 00 00 C0 00 00 00 00
 13.230190 1  3D5             Rx   d 8 FF 08 00 00 FC 00 00 00
 13.250146 1  1B2             Rx   d 8 F0 F0 0F F3 C0 33 3C 00
 13.267313 1  716             Tx   d 8 03 22 F1 A0 00 00 00 00
 13.290149 1  71E             Rx   d 8 10 08 62 F1 A0 30 31 2E
 13.295819 1  716             Tx   d 8 30 08 0A 00 00 00 00 00
 13.300117 1  71E             Rx   d 8 21 30 31 AA AA AA AA AA
 13.366847 1  716             Tx   d 8 03 22 F1 A0 00 00 00 00
 13.390581 1  71E             Rx   d 8 10 08 62 F1 A0 30 31 2E
 13.397507 1  716             Tx   d 8 30 08 0A 00 00 00 00 00
 13.400311 1  1B1             Rx   d 8 04 01 01 00 01 01 00 04
 13.401399 1  71E             Rx   d 8 21 30 31 AA AA AA AA AA
 13.410204 1  36E             Rx   d 8 00 00 00 C0 00 00 00 00
 13.430216 1  3D5             Rx   d 8 FF 08 00 00 FC 00 00 00
 13.450124 1  1B2             Rx   d 8 F0 F0 0F F3 C0 33 3C 00
 13.600161 1  1B1             Rx   d 8 04 01 01 00 01 01 00 04
 13.610201 1  36E             Rx   d 8 00 00 00 C0 00 00 00 00
 13.630203 1  3D5             Rx   d 8 FF 08 00 00 FC 00 00 00
 13.650137 1  1B2             Rx   d 8 F0 F0 0F F3 C0 33 3C 00
 13.745193 1  457             Rx   d 8 57 04 00 00 00 00 FF FF
 13.800198 1  1B1             Rx   d 8 04 01 01 00 01 01 00 04
 13.810207 1  36E             Rx   d 8 00 00 00 C0 00 00 00 00
 13.830191 1  3D5             Rx   d 8 FF 08 00 00 FC 00 00 00
 13.850145 1  1B2             Rx   d 8 F0 F0 0F F3 C0 33 3C 00
 14.000185 1  1B1             Rx   d 8 04 01 01 00 01 01 00 04
 14.010217 1  36E             Rx   d 8 00 00 00 C0 00 00 00 00
 14.030218 1  3D5             Rx   d 8 FF 08 00 00 FC 00 00 00
 14.050155 1  1B2             Rx   d 8 F0 F0 0F F3 C0 33 3C 00
 14.200174 1  1B1             Rx   d 8 04 01 01 00 01 01 00 04
 14.210221 1  36E             Rx   d 8 00 00 00 C0 00 00 00 00
 14.230206 1  3D5             Rx   d 8 FF 08 00 00 FC 00 00 00
 14.250141 1  1B2             Rx   d 8 F0 F0 0F F3 C0 33 3C 00
 14.289696 1  716             Tx   d 8 03 22 F1 B1 00 00 00 00
 14.310246 1  71E             Rx   d 8 10 08 62 F1 B1 30 31 2E
 14.320637 1  716             Tx   d 8 30 08 0A 00 00 00 00 00
 14.325319 1  71E             Rx   d 8 21 30 31 AA AA AA AA AA
 14.400174 1  1B1             Rx   d 8 04 01 01 00 01 01 00 04
 14.410234 1  36E             Rx   d 8 00 00 00 C0 00 00 00 00
 14.430439 1  3D5             Rx   d 8 FF 08 00 00 FC 00 00 00
 14.450149 1  1B2             Rx   d 8 F0 F0 0F F3 C0 33 3C 00
 14.600193 1  1B1             Rx   d 8 04 01 01 00 01 01 00 04
 14.610218 1  36E             Rx   d 8 00 00 00 C0 00 00 00 00
 14.630202 1  3D5             Rx   d 8 FF 08 00 00 FC 00 00 00
 14.650147 1  1B2             Rx   d 8 F0 F0 0F F3 C0 33 3C 00
 14.745207 1  457             Rx   d 8 57 04 00 00 00 00 FF FF
 14.800200 1  1B1             Rx   d 8 04 01 01 00 01 01 00 04
 14.810217 1  36E             Rx   d 8 00 00 00 C0 00 00 00 00
 14.830202 1  3D5             Rx   d 8 FF 08 00 00 FC 00 00 00
 14.850147 1  1B2             Rx   d 8 F0 F0 0F F3 C0 33 3C 00
 15.000199 1  1B1             Rx   d 8 04 01 01 00 01 01 00 04
 15.010221 1  36E             Rx   d 8 00 00 00 C0 00 00 00 00
 15.030213 1  3D5             Rx   d 8 FF 08 00 00 FC 00 00 00
 15.050156 1  1B2             Rx   d 8 F0 F0 0F F3 C0 33 3C 00
 15.200305 1  1B1             Rx   d 8 04 01 01 00 01 01 00 04
 15.210320 1  36E             Rx   d 8 00 00 00 C0 00 00 00 00
 15.230319 1  3D5             Rx   d 8 FF 08 00 00 FC 00 00 00
 15.250275 1  1B2             Rx   d 8 F0 F0 0F F3 C0 33 3C 00
 15.400301 1  1B1             Rx   d 8 04 01 01 00 01 01 00 04
 15.410339 1  36E             Rx   d 8 00 00 00 C0 00 00 00 00
 15.430318 1  3D5             Rx   d 8 FF 08 00 00 FC 00 00 00
 15.450274 1  1B2             Rx   d 8 F0 F0 0F F3 C0 33 3C 00
 15.600305 1  1B1             Rx   d 8 04 01 01 00 01 01 00 04
 15.610338 1  36E             Rx   d 8 00 00 00 C0 00 00 00 00
 15.630331 1  3D5             Rx   d 8 FF 08 00 00 FC 00 00 00
 15.650273 1  1B2             Rx   d 8 F0 F0 0F F3 C0 33 3C 00
 15.745325 1  457             Rx   d 8 57 04 00 00 00 00 FF FF
 15.800321 1  1B1             Rx   d 8 04 01 01 00 01 01 00 04
 15.810339 1  36E             Rx   d 8 00 00 00 C0 00 00 00 00
 15.830342 1  3D5             Rx   d 8 FF 08 00 00 FC 00 00 00
 15.850278 1  1B2             Rx   d 8 F0 F0 0F F3 C0 33 3C 00
 15.877638 1  716             Tx   d 8 03 22 F1 A1 00 00 00 00
 15.900324 1  71E             Rx   d 8 07 62 F1 A1 00 00 00 00
 15.973712 1  716             Tx   d 8 03 22 F1 A1 00 00 00 00
 15.990294 1  71E             Rx   d 8 07 62 F1 A1 00 00 00 00
 16.000265 1  1B1             Rx   d 8 04 01 01 00 01 01 00 04
 16.010305 1  36E             Rx   d 8 00 00 00 C0 00 00 00 00
 16.030713 1  3D5             Rx   d 8 FF 08 00 00 FC 00 00 00
 16.050242 1  1B2             Rx   d 8 F0 F0 0F F3 C0 33 3C 00
 16.200286 1  1B1             Rx   d 8 04 01 01 00 01 01 00 04
 16.210304 1  36E             Rx   d 8 00 00 00 C0 00 00 00 00
 16.230334 1  3D5             Rx   d 8 FF 08 00 00 FC 00 00 00
 16.250265 1  1B2             Rx   d 8 F0 F0 0F F3 C0 33 3C 00
 16.400319 1  1B1             Rx   d 8 04 01 01 00 01 01 00 04
 16.410347 1  36E             Rx   d 8 00 00 00 C0 00 00 00 00
 16.430332 1  3D5             Rx   d 8 FF 08 00 00 FC 00 00 00
 16.441374 1  716             Tx   d 8 03 22 F1 97 00 00 00 00
 16.450413 1  1B2             Rx   d 8 F0 F0 0F F3 C0 33 3C 00
 16.460282 1  71E             Rx   d 8 07 62 F1 97 4D 4B 42 44
 16.600230 1  1B1             Rx   d 8 04 01 01 00 01 01 00 04
 16.610236 1  36E             Rx   d 8 00 00 00 C0 00 00 00 00
 16.630232 1  3D5             Rx   d 8 FF 08 00 00 FC 00 00 00
 16.650185 1  1B2             Rx   d 8 F0 F0 0F F3 C0 33 3C 00
 16.745235 1  457             Rx   d 8 57 04 00 00 00 00 FF FF
 16.800232 1  1B1             Rx   d 8 04 01 01 00 01 01 00 04
 16.810243 1  36E             Rx   d 8 00 00 00 C0 00 00 00 00
 16.830247 1  3D5             Rx   d 8 FF 08 00 00 FC 00 00 00
 16.850182 1  1B2             Rx   d 8 F0 F0 0F F3 C0 33 3C 00
 17.000217 1  1B1             Rx   d 8 04 01 01 00 01 01 00 04
 17.010261 1  36E             Rx   d 8 00 00 00 C0 00 00 00 00
 17.030234 1  3D5             Rx   d 8 FF 08 00 00 FC 00 00 00
 17.050183 1  1B2             Rx   d 8 F0 F0 0F F3 C0 33 3C 00
 17.200229 1  1B1             Rx   d 8 04 01 01 00 01 01 00 04
 17.210250 1  36E             Rx   d 8 00 00 00 C0 00 00 00 00
 17.230246 1  3D5             Rx   d 8 FF 08 00 00 FC 00 00 00
 17.250196 1  1B2             Rx   d 8 F0 F0 0F F3 C0 33 3C 00
 17.400220 1  1B1             Rx   d 8 04 01 01 00 01 01 00 04
 17.410258 1  36E             Rx   d 8 00 00 00 C0 00 00 00 00
 17.430246 1  3D5             Rx   d 8 FF 08 00 00 FC 00 00 00
 17.450196 1  1B2             Rx   d 8 F0 F0 0F F3 C0 33 3C 00
 17.600233 1  1B1             Rx   d 8 04 01 01 00 01 01 00 04
 17.610255 1  36E             Rx   d 8 00 00 00 C0 00 00 00 00
 17.630251 1  3D5             Rx   d 8 FF 08 00 00 FC 00 00 00
 17.650196 1  1B2             Rx   d 8 F0 F0 0F F3 C0 33 3C 00
 17.745254 1  457             Rx   d 8 57 04 00 00 00 00 FF FF
 17.800216 1  1B1             Rx   d 8 04 01 01 00 01 01 00 04
 17.810274 1  36E             Rx   d 8 00 00 00 C0 00 00 00 00
 17.830257 1  3D5             Rx   d 8 FF 08 00 00 FC 00 00 00
 17.850219 1  1B2             Rx   d 8 F0 F0 0F F3 C0 33 3C 00
 18.000231 1  1B1             Rx   d 8 04 01 01 00 01 01 00 04
 18.010272 1  36E             Rx   d 8 00 00 00 C0 00 00 00 00
 18.030253 1  3D5             Rx   d 8 FF 08 00 00 FC 00 00 00
 18.050195 1  1B2             Rx   d 8 F0 F0 0F F3 C0 33 3C 00
 18.200242 1  1B1             Rx   d 8 04 01 01 00 01 01 00 04
 18.210263 1  36E             Rx   d 8 00 00 00 C0 00 00 00 00
 18.230260 1  3D5             Rx   d 8 FF 08 00 00 FC 00 00 00
 18.250198 1  1B2             Rx   d 8 F0 F0 0F F3 C0 33 3C 00
 18.400251 1  1B1             Rx   d 8 04 01 01 00 01 01 00 04
 18.410260 1  36E             Rx   d 8 00 00 00 C0 00 00 00 00
 18.430261 1  3D5             Rx   d 8 FF 08 00 00 FC 00 00 00
 18.450200 1  1B2             Rx   d 8 F0 F0 0F F3 C0 33 3C 00
 18.586960 1  716             Tx   d 8 03 22 F1 B1 00 00 00 00
 18.600247 1  1B1             Rx   d 8 04 01 01 00 01 01 00 04
 18.610399 1  36E             Rx   d 8 00 00 00 C0 00 00 00 00
 18.611606 1  71E             Rx   d 8 10 08 62 F1 B1 30 31 2E
 18.615900 1  716             Tx   d 8 03 22 F1 C1 00 00 00 00
 18.620914 1  716             Tx   d 8 30 08 0A 00 00 00 00 00
 18.625301 1  71E             Rx   d 8 21 30 31 AA AA AA AA AA
 18.630309 1  3D5             Rx   d 8 FF 08 00 00 FC 00 00 00
 18.640247 1  716             Tx   d 8 03 22 F1 B1 00 00 00 00
 18.650421 1  1B2             Rx   d 8 F0 F0 0F F3 C0 33 3C 00
 18.660294 1  71E             Rx   d 8 10 08 62 F1 B1 30 31 2E
 18.666424 1  716             Tx   d 8 30 08 0A 00 00 00 00 00
 18.670170 1  71E             Rx   d 8 21 30 31 AA AA AA AA AA
 18.745342 1  457             Rx   d 8 57 04 00 00 00 00 FF FF
 18.800247 1  1B1             Rx   d 8 04 01 01 00 01 01 00 04
 18.810285 1  36E             Rx   d 8 00 00 00 C0 00 00 00 00
 18.830276 1  3D5             Rx   d 8 FF 08 00 00 FC 00 00 00
 18.850212 1  1B2             Rx   d 8 F0 F0 0F F3 C0 33 3C 00
 19.000247 1  1B1             Rx   d 8 04 01 01 00 01 01 00 04
 19.010263 1  36E             Rx   d 8 00 00 00 C0 00 00 00 00
 19.030260 1  3D5             Rx   d 8 FF 08 00 00 FC 00 00 00
 19.050215 1  1B2             Rx   d 8 F0 F0 0F F3 C0 33 3C 00
 19.200246 1  1B1             Rx   d 8 04 01 01 00 01 01 00 04
 19.210275 1  36E             Rx   d 8 00 00 00 C0 00 00 00 00
 19.230263 1  3D5             Rx   d 8 FF 08 00 00 FC 00 00 00
 19.250216 1  1B2             Rx   d 8 F0 F0 0F F3 C0 33 3C 00
 19.400268 1  1B1             Rx   d 8 04 01 01 00 01 01 00 04
 19.410287 1  36E             Rx   d 8 00 00 00 C0 00 00 00 00
 19.430272 1  3D5             Rx   d 8 FF 08 00 00 FC 00 00 00
 19.450213 1  1B2             Rx   d 8 F0 F0 0F F3 C0 33 3C 00
 19.600259 1  1B1             Rx   d 8 04 01 01 00 01 01 00 04
 19.610286 1  36E             Rx   d 8 00 00 00 C0 00 00 00 00
 19.630310 1  3D5             Rx   d 8 FF 08 00 00 FC 00 00 00
 19.650213 1  1B2             Rx   d 8 F0 F0 0F F3 C0 33 3C 00
 19.745286 1  457             Rx   d 8 57 04 00 00 00 00 FF FF
 19.800264 1  1B1             Rx   d 8 04 01 01 00 01 01 00 04
 19.810275 1  36E             Rx   d 8 00 00 00 C0 00 00 00 00
 19.830280 1  3D5             Rx   d 8 FF 08 00 00 FC 00 00 00
 19.850217 1  1B2             Rx   d 8 F0 F0 0F F3 C0 33 3C 00
 20.000249 1  1B1             Rx   d 8 04 01 01 00 01 01 00 04
 20.010289 1  36E             Rx   d 8 00 00 00 C0 00 00 00 00
 20.030262 1  3D5             Rx   d 8 FF 08 00 00 FC 00 00 00
 20.050212 1  1B2             Rx   d 8 F0 F0 0F F3 C0 33 3C 00
 20.200260 1  1B1             Rx   d 8 04 01 01 00 01 01 00 04
 20.210284 1  36E             Rx   d 8 00 00 00 C0 00 00 00 00
 20.230287 1  3D5             Rx   d 8 FF 08 00 00 FC 00 00 00
 20.250225 1  1B2             Rx   d 8 F0 F0 0F F3 C0 33 3C 00
 20.400275 1  1B1             Rx   d 8 04 01 01 00 01 01 00 04
 20.410290 1  36E             Rx   d 8 00 00 00 C0 00 00 00 00
 20.430286 1  3D5             Rx   d 8 FF 08 00 00 FC 00 00 00
 20.450219 1  1B2             Rx   d 8 F0 F0 0F F3 C0 33 3C 00
 20.600264 1  1B1             Rx   d 8 04 01 01 00 01 01 00 04
 20.610331 1  36E             Rx   d 8 00 00 00 C0 00 00 00 00
 20.630289 1  3D5             Rx   d 8 FF 08 00 00 FC 00 00 00
 20.650232 1  1B2             Rx   d 8 F0 F0 0F F3 C0 33 3C 00
 20.744556 1  716             Tx   d 8 03 22 F1 EF 00 00 00 00
 20.745811 1  457             Rx   d 8 57 04 00 00 00 00 FF FF
 20.760369 1  71E             Rx   d 8 10 2B 62 F1 EF 07 16 0B
 20.770869 1  716             Tx   d 8 30 08 0A 00 00 00 00 00
 20.775240 1  71E             Rx   d 8 21 52 31 30 20 4B 59 31
 20.790202 1  71E             Rx   d 8 22 2F 31 2F 30 0C 52 31
 20.800407 1  1B1             Rx   d 8 04 01 01 00 01 01 00 04
 20.805220 1  71E             Rx   d 8 23 35 35 20 4B 59 31 2F
 20.810359 1  36E             Rx   d 8 00 00 00 C0 00 00 00 00
 20.820220 1  71E             Rx   d 8 24 31 2F 30 0C 52 31 35
 20.830368 1  3D5             Rx   d 8 FF 08 00 00 FC 00 00 00
 20.835237 1  71E             Rx   d 8 25 36 20 4B 59 31 2F 31
 20.850239 1  1B2             Rx   d 8 F0 F0 0F F3 C0 33 3C 00
 20.851393 1  71E             Rx   d 8 26 2F 30 AA AA AA AA AA
 21.000274 1  1B1             Rx   d 8 04 01 01 00 01 01 00 04
 21.010306 1  36E             Rx   d 8 00 00 00 C0 00 00 00 00
 21.030290 1  3D5             Rx   d 8 FF 08 00 00 FC 00 00 00
 21.050241 1  1B2             Rx   d 8 F0 F0 0F F3 C0 33 3C 00
 21.188127 1  716             Tx   d 8 03 22 F1 97 00 00 00 00
 21.200287 1  1B1             Rx   d 8 04 01 01 00 01 01 00 04
 21.210319 1  36E             Rx   d 8 00 00 00 C0 00 00 00 00
 21.211408 1  71E             Rx   d 8 07 62 F1 97 4D 4B 42 44
 21.230301 1  3D5             Rx   d 8 FF 08 00 00 FC 00 00 00
 21.250289 1  1B2             Rx   d 8 F0 F0 0F F3 C0 33 3C 00
 21.266869 1  716             Tx   d 8 03 22 F1 97 00 00 00 00
 21.290224 1  71E             Rx   d 8 07 62 F1 97 4D 4B 42 44
 21.400269 1  1B1             Rx   d 8 04 01 01 00 01 01 00 04
 21.410314 1  36E             Rx   d 8 00 00 00 C0 00 00 00 00
 21.430304 1  3D5             Rx   d 8 FF 08 00 00 FC 00 00 00
 21.450259 1  1B2             Rx   d 8 F0 F0 0F F3 C0 33 3C 00
 21.600375 1  1B1             Rx   d 8 04 01 01 00 01 01 00 04
 21.610405 1  36E             Rx   d 8 00 00 00 C0 00 00 00 00
 21.630390 1  3D5             Rx   d 8 FF 08 00 00 FC 00 00 00
 21.650374 1  1B2             Rx   d 8 F0 F0 0F F3 C0 33 3C 00
 21.745368 1  457             Rx   d 8 57 04 00 00 00 00 FF FF
 21.800349 1  1B1             Rx   d 8 04 01 01 00 01 01 00 04
 21.810364 1  36E             Rx   d 8 00 00 00 C0 00 00 00 00
 21.830374 1  3D5             Rx   d 8 FF 08 00 00 FC 00 00 00
 21.850258 1  1B2             Rx   d 8 F0 F0 0F F3 C0 33 3C 00
 22.000297 1  1B1             Rx   d 8 04 01 01 00 01 01 00 04
 22.010322 1  36E             Rx   d 8 00 00 00 C0 00 00 00 00
 22.030305 1  3D5             Rx   d 8 FF 08 00 00 FC 00 00 00
 22.050268 1  1B2             Rx   d 8 F0 F0 0F F3 C0 33 3C 00
 22.200288 1  1B1             Rx   d 8 04 01 01 00 01 01 00 04
 22.210329 1  36E             Rx   d 8 00 00 00 C0 00 00 00 00
 22.230306 1  3D5             Rx   d 8 FF 08 00 00 FC 00 00 00
 22.250275 1  1B2             Rx   d 8 F0 F0 0F F3 C0 33 3C 00
 22.400278 1  1B1             Rx   d 8 04 01 01 00 01 01 00 04
 22.410322 1  36E             Rx   d 8 00 00 00 C0 00 00 00 00
 22.430317 1  3D5             Rx   d 8 FF 08 00 00 FC 00 00 00
 22.450246 1  1B2             Rx   d 8 F0 F0 0F F3 C0 33 3C 00
 22.600288 1  1B1             Rx   d 8 04 01 01 00 01 01 00 04
 22.610332 1  36E             Rx   d 8 00 00 00 C0 00 00 00 00
 22.630306 1  3D5             Rx   d 8 FF 08 00 00 FC 00 00 00
 22.650259 1  1B2             Rx   d 8 F0 F0 0F F3 C0 33 3C 00
 22.745313 1  457             Rx   d 8 57 04 00 00 00 00 FF FF
 22.800298 1  1B1             Rx   d 8 04 01 01 00 01 01 00 04
 22.810330 1  36E             Rx   d 8 00 00 00 C0 00 00 00 00
 22.830313 1  3D5             Rx   d 8 FF 08 00 00 FC 00 00 00
 22.850261 1  1B2             Rx   d 8 F0 F0 0F F3 C0 33 3C 00
 23.000333 1  1B1             Rx   d 8 04 01 01 00 01 01 00 04
 23.010364 1  36E             Rx   d 8 00 00 00 C0 00 00 00 00
 23.030314 1  3D5             Rx   d 8 FF 08 00 00 FC 00 00 00
 23.050261 1  1B2             Rx   d 8 F0 F0 0F F3 C0 33 3C 00
 23.200292 1  1B1             Rx   d 8 04 01 01 00 01 01 00 04
 23.210332 1  36E             Rx   d 8 00 00 00 C0 00 00 00 00
 23.230326 1  3D5             Rx   d 8 FF 08 00 00 FC 00 00 00
 23.250261 1  1B2             Rx   d 8 F0 F0 0F F3 C0 33 3C 00
 23.400301 1  1B1             Rx   d 8 04 01 01 00 01 01 00 04
 23.410332 1  36E             Rx   d 8 00 00 00 C0 00 00 00 00
 23.430329 1  3D5             Rx   d 8 FF 08 00 00 FC 00 00 00
 23.450259 1  1B2             Rx   d 8 F0 F0 0F F3 C0 33 3C 00
 23.600307 1  1B1             Rx   d 8 04 01 01 00 01 01 00 04
 23.610332 1  36E             Rx   d 8 00 00 00 C0 00 00 00 00
 23.630314 1  3D5             Rx   d 8 FF 08 00 00 FC 00 00 00
 23.650271 1  1B2             Rx   d 8 F0 F0 0F F3 C0 33 3C 00
 23.745324 1  457             Rx   d 8 57 04 00 00 00 00 FF FF
 23.800316 1  1B1             Rx   d 8 04 01 01 00 01 01 00 04
 23.810336 1  36E             Rx   d 8 00 00 00 C0 00 00 00 00
 23.830331 1  3D5             Rx   d 8 FF 08 00 00 FC 00 00 00
 23.850381 1  1B2             Rx   d 8 F0 F0 0F F3 C0 33 3C 00
 23.860304 1  716             Tx   d 8 03 22 F1 C1 00 00 00 00
 23.880276 1  71E             Rx   d 8 10 23 62 F1 C1 A6 32 F7
 23.898436 1  716             Tx   d 8 03 22 F1 C1 00 00 00 00
 24.000328 1  1B1             Rx   d 8 04 01 01 00 01 01 00 04
 24.010361 1  36E             Rx   d 8 00 00 00 C0 00 00 00 00
 24.030321 1  3D5             Rx   d 8 FF 08 00 00 FC 00 00 00
 24.050261 1  1B2             Rx   d 8 F0 F0 0F F3 C0 33 3C 00
 24.200318 1  1B1             Rx   d 8 04 01 01 00 01 01 00 04
 24.210333 1  36E             Rx   d 8 00 00 00 C0 00 00 00 00
 24.230341 1  3D5             Rx   d 8 FF 08 00 00 FC 00 00 00
 24.250268 1  1B2             Rx   d 8 F0 F0 0F F3 C0 33 3C 00
 24.400319 1  1B1             Rx   d 8 04 01 01 00 01 01 00 04
 24.410375 1  36E             Rx   d 8 00 00 00 C0 00 00 00 00
 24.430342 1  3D5             Rx   d 8 FF 08 00 00 FC 00 00 00
 24.450287 1  1B2             Rx   d 8 F0 F0 0F F3 C0 33 3C 00
 24.600320 1  1B1             Rx   d 8 04 01 01 00 01 01 00 04
 24.610332 1  36E             Rx   d 8 00 00 00 C0 00 00 00 00
 24.630342 1  3D5             Rx   d 8 FF 08 00 00 FC 00 00 00
 24.650284 1  1B2             Rx   d 8 F0 F0 0F F3 C0 33 3C 00
 24.745336 1  457             Rx   d 8 57 04 00 00 00 00 FF FF
 24.800333 1  1B1             Rx   d 8 04 01 01 00 01 01 00 04
 24.810346 1  36E             Rx   d 8 00 00 00 C0 00 00 00 00
 24.830342 1  3D5             Rx   d 8 FF 08 00 00 FC 00 00 00
 24.850276 1  1B2             Rx   d 8 F0 F0 0F F3 C0 33 3C 00
 25.000313 1  1B1             Rx   d 8 04 01 01 00 01 01 00 04
 25.010350 1  36E             Rx   d 8 00 00 00 C0 00 00 00 00
 25.030346 1  3D5             Rx   d 8 FF 08 00 00 FC 00 00 00
 25.050277 1  1B2             Rx   d 8 F0 F0 0F F3 C0 33 3C 00
 25.200328 1  1B1             Rx   d 8 04 01 01 00 01 01 00 04
 25.210349 1  36E             Rx   d 8 00 00 00 C0 00 00 00 00
 25.230344 1  3D5             Rx   d 8 FF 08 00 00 FC 00 00 00
 25.250275 1  1B2             Rx   d 8 F0 F0 0F F3 C0 33 3C 00
 25.400329 1  1B1             Rx   d 8 04 01 01 00 01 01 00 04
 25.410346 1  36E             Rx   d 8 00 00 00 C0 00 00 00 00
 25.430344 1  3D5             Rx   d 8 FF 08 00 00 FC 00 00 00
 25.450295 1  1B2             Rx   d 8 F0 F0 0F F3 C0 33 3C 00
 25.600344 1  1B1             Rx   d 8 04 01 01 00 01 01 00 04
 25.610357 1  36E             Rx   d 8 00 00 00 C0 00 00 00 00
 25.630349 1  3D5             Rx   d 8 FF 08 00 00 FC 00 00 00
 25.650301 1  1B2             Rx   d 8 F0 F0 0F F3 C0 33 3C 00
 25.745364 1  457             Rx   d 8 57 04 00 00 00 00 FF FF
 25.800346 1  1B1             Rx   d 8 04 01 01 00 01 01 00 04
 25.810360 1  36E             Rx   d 8 00 00 00 C0 00 00 00 00
 25.830357 1  3D5             Rx   d 8 FF 08 00 00 FC 00 00 00
 25.850305 1  1B2             Rx   d 8 F0 F0 0F F3 C0 33 3C 00
 26.000331 1  1B1             Rx   d 8 04 01 01 00 01 01 00 04
 26.010361 1  36E             Rx   d 8 00 00 00 C0 00 00 00 00
 26.030357 1  3D5             Rx   d 8 FF 08 00 00 FC 00 00 00
 26.050301 1  1B2             Rx   d 8 F0 F0 0F F3 C0 33 3C 00
 26.200343 1  1B1             Rx   d 8 04 01 01 00 01 01 00 04
 26.210360 1  36E             Rx   d 8 00 00 00 C0 00 00 00 00
 26.230360 1  3D5             Rx   d 8 FF 08 00 00 FC 00 00 00
 26.250301 1  1B2             Rx   d 8 F0 F0 0F F3 C0 33 3C 00
 26.400341 1  1B1             Rx   d 8 04 01 01 00 01 01 00 04
 26.410361 1  36E             Rx   d 8 00 00 00 C0 00 00 00 00
 26.430356 1  3D5             Rx   d 8 FF 08 00 00 FC 00 00 00
 26.450310 1  1B2             Rx   d 8 F0 F0 0F F3 C0 33 3C 00
 26.470880 1  716             Tx   d 8 03 22 F1 EF 00 00 00 00
 26.490328 1  71E             Rx   d 8 10 2B 62 F1 EF 07 16 0B
 26.506035 1  716             Tx   d 8 03 22 F1 EF 00 00 00 00
 26.600344 1  1B1             Rx   d 8 04 01 01 00 01 01 00 04
 26.610383 1  36E             Rx   d 8 00 00 00 C0 00 00 00 00
 26.630363 1  3D5             Rx   d 8 FF 08 00 00 FC 00 00 00
 26.650311 1  1B2             Rx   d 8 F0 F0 0F F3 C0 33 3C 00
 26.745371 1  457             Rx   d 8 57 04 00 00 00 00 FF FF
 26.800348 1  1B1             Rx   d 8 04 01 01 00 01 01 00 04
 26.810376 1  36E             Rx   d 8 00 00 00 C0 00 00 00 00
 26.830363 1  3D5             Rx   d 8 FF 08 00 00 FC 00 00 00
 26.850402 1  1B2             Rx   d 8 F0 F0 0F F3 C0 33 3C 00
 27.000456 1  1B1             Rx   d 8 04 01 01 00 01 01 00 04
 27.010497 1  36E             Rx   d 8 00 00 00 C0 00 00 00 00
 27.030519 1  3D5             Rx   d 8 FF 08 00 00 FC 00 00 00
 27.050432 1  1B2             Rx   d 8 F0 F0 0F F3 C0 33 3C 00
 27.200420 1  1B1             Rx   d 8 04 01 01 00 01 01 00 04
 27.210443 1  36E             Rx   d 8 00 00 00 C0 00 00 00 00
 27.230431 1  3D5             Rx   d 8 FF 08 00 00 FC 00 00 00
 27.250387 1  1B2             Rx   d 8 F0 F0 0F F3 C0 33 3C 00
 27.400496 1  1B1             Rx   d 8 04 01 01 00 01 01 00 04
 27.410483 1  36E             Rx   d 8 00 00 00 C0 00 00 00 00
 27.430481 1  3D5             Rx   d 8 FF 08 00 00 FC 00 00 00
 27.450415 1  1B2             Rx   d 8 F0 F0 0F F3 C0 33 3C 00
 27.600500 1  1B1             Rx   d 8 04 01 01 00 01 01 00 04
 27.610489 1  36E             Rx   d 8 00 00 00 C0 00 00 00 00
 27.630481 1  3D5             Rx   d 8 FF 08 00 00 FC 00 00 00
 27.650435 1  1B2             Rx   d 8 F0 F0 0F F3 C0 33 3C 00
 27.745485 1  457             Rx   d 8 57 04 00 00 00 00 FF FF
 27.800464 1  1B1             Rx   d 8 04 01 01 00 01 01 00 04
 27.810495 1  36E             Rx   d 8 00 00 00 C0 00 00 00 00
 27.830495 1  3D5             Rx   d 8 FF 08 00 00 FC 00 00 00
 27.850435 1  1B2             Rx   d 8 F0 F0 0F F3 C0 33 3C 00
 28.000508 1  1B1             Rx   d 8 04 01 01 00 01 01 00 04
 28.010497 1  36E             Rx   d 8 00 00 00 C0 00 00 00 00
 28.030481 1  3D5             Rx   d 8 FF 08 00 00 FC 00 00 00
 28.050430 1  1B2             Rx   d 8 F0 F0 0F F3 C0 33 3C 00
 28.200504 1  1B1             Rx   d 8 04 01 01 00 01 01 00 04
 28.210494 1  36E             Rx   d 8 00 00 00 C0 00 00 00 00
 28.230480 1  3D5             Rx   d 8 FF 08 00 00 FC 00 00 00
 28.250447 1  1B2             Rx   d 8 F0 F0 0F F3 C0 33 3C 00
 28.400510 1  1B1             Rx   d 8 04 01 01 00 01 01 00 04
 28.410496 1  36E             Rx   d 8 00 00 00 C0 00 00 00 00
 28.430501 1  3D5             Rx   d 8 FF 08 00 00 FC 00 00 00
 28.450452 1  1B2             Rx   d 8 F0 F0 0F F3 C0 33 3C 00
 28.600523 1  1B1             Rx   d 8 04 01 01 00 01 01 00 04
 28.610504 1  36E             Rx   d 8 00 00 00 C0 00 00 00 00
 28.630488 1  3D5             Rx   d 8 FF 08 00 00 FC 00 00 00
 28.650446 1  1B2             Rx   d 8 F0 F0 0F F3 C0 33 3C 00
 28.745541 1  457             Rx   d 8 57 04 00 00 00 00 FF FF
 28.800374 1  1B1             Rx   d 8 04 01 01 00 01 01 00 04
 28.810412 1  36E             Rx   d 8 00 00 00 C0 00 00 00 00
 28.830398 1  3D5             Rx   d 8 FF 08 00 00 FC 00 00 00
 28.850332 1  1B2             Rx   d 8 F0 F0 0F F3 C0 33 3C 00
 29.000405 1  1B1             Rx   d 8 04 01 01 00 01 01 00 04
 29.010403 1  36E             Rx   d 8 00 00 00 C0 00 00 00 00
 29.030388 1  3D5             Rx   d 8 FF 08 00 00 FC 00 00 00
 29.050330 1  1B2             Rx   d 8 F0 F0 0F F3 C0 33 3C 00
 29.200389 1  1B1             Rx   d 8 04 01 01 00 01 01 00 04
 29.210409 1  36E             Rx   d 8 00 00 00 C0 00 00 00 00
 29.230401 1  3D5             Rx   d 8 FF 08 00 00 FC 00 00 00
 29.250353 1  1B2             Rx   d 8 F0 F0 0F F3 C0 33 3C 00
End TriggerBlock
2             Rx   d 8 F0 F0 0F F3 C0 33 3C 00
 29.455382 1  1B1             Rx   d 8 04 01 01 00 01 01 00 04
 29.465403 1  36E             Rx   d 8 00 00 00 C0 00 00 00 00
End TriggerBlock
