date Tue May 20 10:32:29.791 AM 2025
base hex  timestamps absolute
internal events logged
Begin Triggerblock Tue May 20 10:32:29.791 AM 2025
 0.000000 Start of measurement
 0.000000 1  12D             Rx   d 8 00 00 00 00 00 00 00 00
 0.008855 1  1A0             Rx   d 8 55 77 FF FF 00 00 77 00
 0.018893 1  17B             Rx   d 8 00 00 00 00 00 00 00 00
 0.020083 1  17A             Rx   d 8 00 00 00 00 C0 00 00 00
 0.028883 1  54E             Rx   d 8 00 00 00 00 00 00 00 00
 0.030201 1  558             Rx   d 8 FF FF FF FF FF FF FF F8
 0.031327 1  110             Rx   d 8 FC 3F 3C 00 C0 03 00 00
 0.038893 1  15E             Rx   d 8 00 00 00 00 00 00 CC 03
 0.040103 1  57D             Rx   d 8 FF 3F FF 3F 00 00 06 00
 0.041429 1  54D             Rx   d 8 00 00 00 00 00 00 00 00
 0.042496 1  557             Rx   d 8 FF FF FF FF FF FF FF F0
 0.043777 1  55A             Rx   d 8 00 09 00 00 00 00 00 00
 0.048737 1  1CB             Rx   d 8 FF C0 30 FC 00 00 00 00
 0.049979 1  55E             Rx   d 8 00 03 00 3F C0 FF 00 00
 0.051179 1  54F             Rx   d 8 00 00 00 00 00 00 00 00
 0.052443 1  55C             Rx   d 8 00 00 00 00 00 30 C0 00
 0.053675 1  716             Tx   d 8 02 10 01 00 00 00 00 00
 0.054893 1  1B1             Rx   d 8 04 01 01 00 01 01 00 04
 0.058889 1  56A             Rx   d 8 00 00 00 00 00 00 00 00
 0.059979 1  331             Rx   d 8 03 3C F3 CF 3C F3 CF 00
 0.061159 1  56B             Rx   d 8 00 00 00 00 00 00 00 00
 0.062454 1  57B             Rx   d 8 00 00 00 00 00 00 00 00
 0.063684 1  55D             Rx   d 8 00 00 00 00 00 00 FF 00
 0.064938 1  36E             Rx   d 8 00 00 00 C0 00 00 00 00
 0.068897 1  1E8             Rx   d 8 00 00 00 00 00 00 00 00
 0.070067 1  16A             Rx   d 8 03 0F F0 00 0F 00 FF 3C
 0.071286 1  457             Rx   d 8 40 02 00 00 00 00 FF FF
 0.072750 1  55B             Rx   d 8 00 00 00 00 00 00 00 00
 0.073732 1  56C             Rx   d 8 00 00 00 00 00 00 00 00
 0.074960 1  57A             Rx   d 8 00 00 C0 00 00 00 00 00
 0.076133 1  71E             Rx   d 8 06 50 01 00 32 01 F4 AA
 0.079146 1  59A             Rx   d 8 7F FF 00 00 00 00 00 00
 0.080222 1  15D             Rx   d 8 00 00 00 00 00 18 00 F0
 0.081464 1  17F             Rx   d 8 FF FF CF FF FF 0F E0 00
 0.082929 1  10E             Rx   d 8 00 00 00 00 00 00 00 00
 0.083930 1  126             Rx   d 8 0F 00 80 00 00 00 FF FF
 0.085115 1  1AA             Rx   d 8 FF FF FF FF 33 00 00 00
 0.086320 1  195             Rx   d 8 00 00 00 01 E0 00 00 00
 0.087524 1  3D5             Rx   d 8 FF 08 00 00 FC 00 00 00
 0.088800 1  362             Rx   d 8 00 00 00 00 00 00 00 00
 0.089997 1  169             Rx   d 8 0F 00 00 00 00 C0 03 E8
 0.091233 1  363             Rx   d 8 00 00 00 00 00 00 00 00
 0.092464 1  135             Rx   d 8 0C 00 00 00 FF FF FF 00
 0.093670 1  56E             Rx   d 8 FF FF FF FF FF E0 00 00
 0.094900 1  361             Rx   d 8 00 00 00 00 00 00 00 00
 0.096088 1  360             Rx   d 8 00 0F 00 0F 0F 0F 00 00
 0.097398 1  364             Rx   d 8 00 00 00 00 00 00 00 00
 0.098697 1  12A             Rx   d 8 00 00 00 00 00 00 E0 0C
 0.099998 1  504             Rx   d 8 00 03 00 00 00 00 00 00
 0.101180 1  171             Rx   d 8 F0 E0 00 00 00 00 00 00
 0.102428 1  158             Rx   d 8 00 00 00 00 F9 C0 03 FF
 0.103668 1  161             Rx   d 8 03 00 00 00 00 00 00 00
 0.104805 1  1B2             Rx   d 8 F0 F0 0F F3 C0 33 3C 00
 0.108785 1  2A4             Rx   d 8 FF FF FF FF FF FF FF 00
 0.109940 1  19E             Rx   d 8 00 00 00 00 00 00 00 00
 0.111201 1  1D1             Rx   d 8 00 00 00 00 00 00 03 00
 0.119032 1  1DA             Rx   d 8 00 00 00 30 00 00 00 00
 0.120189 1  1D0             Rx   d 8 00 00 00 00 00 00 00 00
 0.121335 1  173             Rx   d 8 C3 0F 6F 00 0C FF 7F 3C
 0.122571 1  164             Rx   d 8 00 00 00 00 00 00 00 00
 0.123763 1  1E5             Rx   d 8 00 0F FF FF FF 80 FF 00
 0.124983 1  1DF             Rx   d 8 FF FF 00 03 1F 80 F8 0C
 0.128795 1  1D2             Rx   d 8 FF FF FF FF 1F FF 00 00
 0.129980 1  166             Rx   d 8 00 00 00 00 00 00 00 00
 0.131205 1  1AB             Rx   d 8 FF FF FF FF FF 7E 03 00
 0.132445 1  57E             Rx   d 8 00 00 00 00 00 00 00 00
 0.138682 1  3CA             Rx   d 8 FF FF FF FF FF FF 00 00
 0.139947 1  133             Rx   d 8 03 FF 00 00 00 00 00 FF
 0.141153 1  19D             Rx   d 8 3F 3F 3F 00 F3 00 00 00
 0.148731 1  1E7             Rx   d 8 FF FF FF FF FF FF FF 00
 0.149926 1  12B             Rx   d 8 00 00 00 00 00 00 00 00
 0.151163 1  123             Rx   d 8 FF FF FF C0 FF FF FF FF
 0.152398 1  38F             Rx   d 8 FE 00 00 00 00 00 00 00
 0.153635 1  115             Rx   d 8 FF FF FF FF FF FF FF 0F
 0.154860 1  1A3             Rx   d 8 FF 00 00 00 00 00 00 00
 0.156109 1  12C             Rx   d 8 00 00 00 00 00 00 00 00
 0.157321 1  17D             Rx   d 8 80 20 08 00 00 00 00 00
 0.158588 1  122             Rx   d 8 7F C3 FF FF FF FF FF FF
 0.159810 1  196             Rx   d 8 00 FF 00 00 00 F8 00 00
 0.168695 1  3CC             Rx   d 8 F0 00 00 00 00 00 00 00
 0.169895 1  11E             Rx   d 8 FF FF FF 00 00 FF FF FF
 0.172603 1  440             Rx   d 8 4D 12 00 00 00 00 FF FF
 0.178708 1  59A             Rx   d 8 7F FF 00 00 00 00 00 00
 0.179909 1  56D             Rx   d 8 00 00 00 00 00 00 00 00
 0.181162 1  1D4             Rx   d 8 00 00 00 00 00 00 00 00
 0.182395 1  138             Rx   d 8 00 00 00 00 00 00 00 00
 0.183630 1  1EB             Rx   d 8 00 0C 00 00 00 00 00 00
 0.184855 1  15A             Rx   d 8 00 00 3F FE 00 00 00 00
 0.186110 1  152             Rx   d 8 00 00 00 00 00 00 00 00
 0.187356 1  165             Rx   d 8 00 00 00 00 00 00 00 00
 0.188601 1  515             Rx   d 8 00 00 00 00 00 00 00 00
 0.189835 1  1EC             Rx   d 8 00 00 00 03 00 00 00 00
 0.191103 1  15B             Rx   d 8 3F FF FF FF FF FF F0 00
 0.192323 1  16D             Rx   d 8 00 00 00 00 00 00 00 00
 0.193568 1  192             Rx   d 8 00 00 00 00 00 00 00 00
 0.194872 1  15C             Rx   d 8 00 00 00 00 00 00 00 00
 0.196067 1  560             Rx   d 8 FF 1F 00 00 00 00 00 00
 0.197285 1  509             Rx   d 8 00 3F FF FF FF FF CF 00
 0.198532 1  1D5             Rx   d 8 C1 FF FF FF FF FF FF FF
 0.199789 1  517             Rx   d 8 00 00 00 00 00 00 00 00
 0.201012 1  516             Rx   d 8 00 00 00 00 00 00 00 00
 0.202266 1  16E             Rx   d 8 00 00 00 00 80 00 00 00
 0.203495 1  137             Rx   d 8 FF 00 00 00 00 00 00 00
 0.204712 1  174             Rx   d 8 FF 0F 38 FF C0 03 00 00
 0.205955 1  12D             Rx   d 8 00 00 00 00 00 00 00 00
 0.207205 1  130             Rx   d 8 00 00 00 00 00 00 00 00
 0.208473 1  19F             Rx   d 8 03 FF 03 FF 00 00 0C 00
 0.209655 1  1A0             Rx   d 8 55 77 FF FF 00 00 77 00
 0.210940 1  51C             Rx   d 8 07 FF FF FF FF FF FF FF
 0.218604 1  17B             Rx   d 8 00 00 00 00 00 00 00 00
 0.219844 1  17A             Rx   d 8 00 00 00 00 C0 00 00 00
 0.228587 1  558             Rx   d 8 FF FF FF FF FF FF FF F8
 0.229766 1  110             Rx   d 8 FC 3F 3C 00 C0 03 00 00
 0.231045 1  54E             Rx   d 8 00 00 00 00 00 00 00 00
 0.238541 1  557             Rx   d 8 FF FF FF FF FF FF FF F0
 0.239782 1  55A             Rx   d 8 00 09 00 00 00 00 00 00
 0.240994 1  57D             Rx   d 8 FF 3F FF 3F 00 00 06 00
 0.242233 1  15E             Rx   d 8 00 00 00 00 00 00 CC 03
 0.243471 1  54D             Rx   d 8 00 00 00 00 00 00 00 00
 0.248547 1  54F             Rx   d 8 00 00 00 00 00 00 00 00
 0.249782 1  55C             Rx   d 8 00 00 00 00 00 30 C0 00
 0.250999 1  1CB             Rx   d 8 FF C0 30 FC 00 00 00 00
 0.252209 1  55E             Rx   d 8 00 03 00 3F C0 FF 00 00
 0.254562 1  1B1             Rx   d 8 04 01 01 00 01 01 00 04
 0.258749 1  56B             Rx   d 8 00 00 00 00 00 00 00 00
 0.259969 1  55D             Rx   d 8 00 00 00 00 00 00 FF 00
 0.261210 1  57B             Rx   d 8 00 00 00 00 00 00 00 00
 0.262452 1  56A             Rx   d 8 00 00 00 00 00 00 00 00
 0.264589 1  36E             Rx   d 8 00 00 00 C0 00 00 00 00
 0.268534 1  57A             Rx   d 8 00 00 C0 00 00 00 00 00
 0.269759 1  16A             Rx   d 8 03 0F F0 00 0F 00 FF 3C
 0.271006 1  56C             Rx   d 8 00 00 00 00 00 00 00 00
 0.272232 1  1E8             Rx   d 8 00 00 00 00 00 00 00 00
 0.273471 1  55B             Rx   d 8 00 00 00 00 00 00 00 00
 0.274701 1  44D             Rx   d 8 55 12 00 00 00 00 FF FF
 0.278574 1  195             Rx   d 8 00 00 00 01 E0 00 00 00
 0.279783 1  1AA             Rx   d 8 FF FF FF FF 33 00 00 00
 0.281042 1  59A             Rx   d 8 7F FF 00 00 00 00 00 00
 0.282246 1  15D             Rx   d 8 00 00 00 00 00 18 00 F0
 0.283465 1  17F             Rx   d 8 FF FF CF FF FF 0F E0 00
 0.284711 1  10E             Rx   d 8 00 00 00 00 00 00 00 00
 0.285925 1  3D5             Rx   d 8 FF 08 00 00 FC 00 00 00
 0.288608 1  121             Rx   d 8 FF FF 0F 00 0F FF FF FF
 0.289830 1  169             Rx   d 8 0F 00 00 00 00 C0 03 E8
 0.291075 1  56E             Rx   d 8 FF FF FF FF FF E0 00 00
 0.292274 1  135             Rx   d 8 0C 00 00 00 FF FF FF 00
 0.298572 1  161             Rx   d 8 03 00 00 00 00 00 00 00
 0.299807 1  136             Rx   d 8 00 00 00 00 00 0F 00 00
 0.301047 1  158             Rx   d 8 00 00 00 00 F9 C0 03 FF
 0.302307 1  504             Rx   d 8 00 03 00 00 00 00 00 00
 0.303510 1  171             Rx   d 8 F0 E0 00 00 00 00 00 00
 0.304740 1  12A             Rx   d 8 00 00 00 00 00 00 E0 0C
 0.305903 1  1B2             Rx   d 8 F0 F0 0F F3 C0 33 3C 00
 0.308587 1  1D1             Rx   d 8 00 00 00 00 00 00 03 00
 0.309818 1  19E             Rx   d 8 00 00 00 00 00 00 00 00
 0.311067 1  2A4             Rx   d 8 FF FF FF FF FF FF FF 00
 0.318831 1  1E5             Rx   d 8 00 0F FF FF FF 80 FF 00
 0.320015 1  1DF             Rx   d 8 FF FF 00 03 1F 80 F8 0C
 0.321265 1  164             Rx   d 8 00 00 00 00 00 00 00 00
 0.322505 1  1DA             Rx   d 8 00 00 00 30 00 00 00 00
 0.323688 1  173             Rx   d 8 C3 0F 6F 00 0C FF 7F 3C
 0.324942 1  1D0             Rx   d 8 00 00 00 00 00 00 00 00
 0.328879 1  1CE             Rx   d 8 00 00 00 00 00 00 00 00
 0.330125 1  57E             Rx   d 8 00 00 00 00 00 00 00 00
 0.331374 1  119             Rx   d 8 03 30 00 00 00 00 00 00
 0.332602 1  1AB             Rx   d 8 FF FF FF FF FF 7E 03 00
 0.333815 1  1D2             Rx   d 8 FF FF FF FF 1F FF 00 00
 0.335058 1  166             Rx   d 8 00 00 00 00 00 00 00 00
 0.338861 1  133             Rx   d 8 03 FF 00 00 00 00 00 FF
 0.340051 1  19D             Rx   d 8 3F 3F 3F 00 F3 00 00 00
 0.341306 1  3CA             Rx   d 8 FF FF FF FF FF FF 00 00
 0.342546 1  1C1             Rx   d 8 FF FF FF FF FF FF FF FF
 0.348601 1  17D             Rx   d 8 80 20 08 00 00 00 00 00
 0.349831 1  12C             Rx   d 8 00 00 00 00 00 00 00 00
 0.351072 1  1A3             Rx   d 8 FF 00 00 00 00 00 00 00
 0.352298 1  1E7             Rx   d 8 FF FF FF FF FF FF FF 00
 0.353509 1  115             Rx   d 8 FF FF FF FF FF FF FF 0F
 0.354752 1  38F             Rx   d 8 FE 00 00 00 00 00 00 00
 0.355996 1  123             Rx   d 8 FF FF FF C0 FF FF FF FF
 0.357234 1  12B             Rx   d 8 00 00 00 00 00 00 00 00
 0.358575 1  196             Rx   d 8 00 FF 00 00 00 F8 00 00
 0.359797 1  122             Rx   d 8 7F C3 FF FF FF FF FF FF
 0.369288 1  11E             Rx   d 8 FF FF FF 00 00 FF FF FF
 0.370558 1  1BC             Rx   d 8 FF FF FF FF FF 00 00 00
 0.371805 1  3CC             Rx   d 8 F0 00 00 00 00 00 00 00
 0.376901 1  455             Rx   d 8 57 12 00 00 00 00 FF FF
 0.378944 1  137             Rx   d 8 FF 00 00 00 00 00 00 00
 0.380147 1  59A             Rx   d 8 7F FF 00 00 00 00 00 00
 0.381400 1  16E             Rx   d 8 00 00 00 00 80 00 00 00
 0.382676 1  1D4             Rx   d 8 00 00 00 00 00 00 00 00
 0.383893 1  56D             Rx   d 8 00 00 00 00 00 00 00 00
 0.385137 1  138             Rx   d 8 00 00 00 00 00 00 00 00
 0.386384 1  152             Rx   d 8 00 00 00 00 00 00 00 00
 0.387617 1  15A             Rx   d 8 00 00 3F FE 00 00 00 00
 0.388855 1  571             Rx   d 8 7F 00 00 00 00 00 00 00
 0.390092 1  1EB             Rx   d 8 00 0C 00 00 00 00 00 00
 0.391359 1  1D5             Rx   d 8 C1 FF FF FF FF FF FF FF
 0.392572 1  15B             Rx   d 8 3F FF FF FF FF FF F0 00
 0.393821 1  5D8             Rx   d 8 00 00 00 00 00 00 00 00
 0.395075 1  165             Rx   d 8 00 00 00 00 00 00 00 00
 0.396314 1  1EC             Rx   d 8 00 00 00 03 00 00 00 00
 0.397565 1  192             Rx   d 8 00 00 00 00 00 00 00 00
 0.398803 1  16D             Rx   d 8 00 00 00 00 00 00 00 00
 0.400067 1  15C             Rx   d 8 00 00 00 00 00 00 00 00
 0.401291 1  1BB             Rx   d 8 FF FF FF FF 00 00 00 00
 0.402535 1  12D             Rx   d 8 00 00 00 00 00 00 00 00
 0.403788 1  130             Rx   d 8 00 00 00 00 00 00 00 00
 0.404990 1  1C0             Rx   d 8 FF 0F 03 00 0F 00 00 00
 0.408767 1  1A0             Rx   d 8 55 77 FF FF 00 00 77 00
 0.419062 1  17B             Rx   d 8 00 00 00 00 00 00 00 00
 0.420296 1  17A             Rx   d 8 00 00 00 00 C0 00 00 00
 0.428988 1  18A             Rx   d 8 00 00 00 00 00 00 00 00
 0.430171 1  110             Rx   d 8 FC 3F 3C 00 C0 03 00 00
 0.431419 1  54E             Rx   d 8 00 00 00 00 00 00 00 00
 0.432674 1  558             Rx   d 8 FF FF FF FF FF FF FF F8
 0.439056 1  54D             Rx   d 8 00 00 00 00 00 00 00 00
 0.440261 1  15E             Rx   d 8 00 00 00 00 00 00 CC 03
 0.441506 1  55A             Rx   d 8 00 09 00 00 00 00 00 00
 0.442706 1  57D             Rx   d 8 FF 3F FF 3F 00 00 06 00
 0.443956 1  557             Rx   d 8 FF FF FF FF FF FF FF F0
 0.449020 1  55E             Rx   d 8 00 03 00 3F C0 FF 00 00
 0.450230 1  1CB             Rx   d 8 FF C0 30 FC 00 00 00 00
 0.451477 1  54F             Rx   d 8 00 00 00 00 00 00 00 00
 0.452734 1  18B             Rx   d 8 00 00 00 00 00 00 00 00
 0.453972 1  55C             Rx   d 8 00 00 00 00 00 30 C0 00
 0.455173 1  1B1             Rx   d 8 04 01 01 00 01 01 00 04
 0.459062 1  56A             Rx   d 8 00 00 00 00 00 00 00 00
 0.460289 1  55D             Rx   d 8 00 00 00 00 00 00 FF 00
 0.461518 1  56B             Rx   d 8 00 00 00 00 00 00 00 00
 0.462771 1  57B             Rx   d 8 00 00 00 00 00 00 00 00
 0.464591 1  36E             Rx   d 8 00 00 00 C0 00 00 00 00
 0.468807 1  16A             Rx   d 8 03 0F F0 00 0F 00 FF 3C
 0.470046 1  1E8             Rx   d 8 00 00 00 00 00 00 00 00
 0.471291 1  55B             Rx   d 8 00 00 00 00 00 00 00 00
 0.472517 1  57A             Rx   d 8 00 00 C0 00 00 00 00 00
 0.473772 1  56C             Rx   d 8 00 00 00 00 00 00 00 00
 0.475023 1  457             Rx   d 8 40 02 00 00 00 00 FF FF
 0.479074 1  59A             Rx   d 8 7F FF 00 00 00 00 00 00
 0.480297 1  17F             Rx   d 8 FF FF CF FF FF 0F E0 00
 0.481506 1  195             Rx   d 8 00 00 00 01 E0 00 00 00
 0.482767 1  10E             Rx   d 8 00 00 00 00 00 00 00 00
 0.484001 1  5DC             Rx   d 8 00 00 00 00 0F FF FF FF
 0.485208 1  3D5             Rx   d 8 FF 08 00 00 FC 00 00 00
 0.486437 1  5DB             Rx   d 8 7F FF FC 00 00 1F FF FF
 0.487656 1  15D             Rx   d 8 00 00 00 00 00 18 00 F0
 0.488869 1  1AA             Rx   d 8 FF FF FF FF 33 00 00 00
 0.490106 1  5DA             Rx   d 8 7F FF FC 00 00 00 00 00
 0.491342 1  135             Rx   d 8 0C 00 00 00 FF FF FF 00
 0.492567 1  56E             Rx   d 8 FF FF FF FF FF E0 00 00
 0.493779 1  169             Rx   d 8 0F 00 00 00 00 C0 03 E8
 0.499131 1  12A             Rx   d 8 00 00 00 00 00 00 E0 0C
 0.500352 1  161             Rx   d 8 03 00 00 00 00 00 00 00
 0.501584 1  158             Rx   d 8 00 00 00 00 F9 C0 03 FF
 0.502800 1  171             Rx   d 8 F0 E0 00 00 00 00 00 00
 0.504065 1  504             Rx   d 8 00 03 00 00 00 00 00 00
 0.505234 1  1B2             Rx   d 8 F0 F0 0F F3 C0 33 3C 00
 0.509179 1  2A4             Rx   d 8 FF FF FF FF FF FF FF 00
 0.510416 1  19E             Rx   d 8 00 00 00 00 00 00 00 00
 0.511638 1  1D1             Rx   d 8 00 00 00 00 00 00 03 00
 0.518847 1  173             Rx   d 8 C3 0F 6F 00 0C FF 7F 3C
 0.520060 1  1D0             Rx   d 8 00 00 00 00 00 00 00 00
 0.521298 1  1DA             Rx   d 8 00 00 00 30 00 00 00 00
 0.522572 1  164             Rx   d 8 00 00 00 00 00 00 00 00
 0.523763 1  1DF             Rx   d 8 FF FF 00 03 1F 80 F8 0C
 0.525020 1  1E5             Rx   d 8 00 0F FF FF FF 80 FF 00
 0.529316 1  1D2             Rx   d 8 FF FF FF FF 1F FF 00 00
 0.530566 1  57E             Rx   d 8 00 00 00 00 00 00 00 00
 0.531802 1  166             Rx   d 8 00 00 00 00 00 00 00 00
 0.533044 1  1AB             Rx   d 8 FF FF FF FF FF 7E 03 00
 0.534274 1  531             Rx   d 8 FF 00 FF 00 00 00 00 00
 0.538942 1  3CA             Rx   d 8 FF FF FF FF FF FF 00 00
 0.540173 1  133             Rx   d 8 03 FF 00 00 00 00 00 FF
 0.541371 1  19D             Rx   d 8 3F 3F 3F 00 F3 00 00 00
 0.548929 1  12B             Rx   d 8 00 00 00 00 00 00 00 00
 0.550159 1  123             Rx   d 8 FF FF FF C0 FF FF FF FF
 0.551401 1  38F             Rx   d 8 FE 00 00 00 00 00 00 00
 0.552618 1  17D             Rx   d 8 80 20 08 00 00 00 00 00
 0.553837 1  115             Rx   d 8 FF FF FF FF FF FF FF 0F
 0.555067 1  1E7             Rx   d 8 FF FF FF FF FF FF FF 00
 0.556302 1  1A3             Rx   d 8 FF 00 00 00 00 00 00 00
 0.557564 1  12C             Rx   d 8 00 00 00 00 00 00 00 00
 0.558796 1  122             Rx   d 8 7F C3 FF FF FF FF FF FF
 0.560014 1  196             Rx   d 8 00 FF 00 00 00 F8 00 00
 0.568777 1  3CC             Rx   d 8 F0 00 00 00 00 00 00 00
 0.570001 1  11E             Rx   d 8 FF FF FF 00 00 FF FF FF
 0.576813 1  440             Rx   d 8 4D 12 00 00 00 00 FF FF
 0.578796 1  16D             Rx   d 8 00 00 00 00 00 00 00 00
 0.580045 1  59A             Rx   d 8 7F FF 00 00 00 00 00 00
 0.581291 1  15C             Rx   d 8 00 00 00 00 00 00 00 00
 0.582541 1  192             Rx   d 8 00 00 00 00 00 00 00 00
 0.583802 1  56F             Rx   d 8 00 00 00 00 00 00 00 00
 0.585015 1  137             Rx   d 8 FF 00 00 00 00 00 00 00
 0.586251 1  1EC             Rx   d 8 00 00 00 03 00 00 00 00
 0.587503 1  138             Rx   d 8 00 00 00 00 00 00 00 00
 0.588741 1  56D             Rx   d 8 00 00 00 00 00 00 00 00
 0.589991 1  1D4             Rx   d 8 00 00 00 00 00 00 00 00
 0.591267 1  16E             Rx   d 8 00 00 00 00 80 00 00 00
 0.592490 1  165             Rx   d 8 00 00 00 00 00 00 00 00
 0.593734 1  1EB             Rx   d 8 00 0C 00 00 00 00 00 00
 0.594962 1  15A             Rx   d 8 00 00 3F FE 00 00 00 00
 0.596204 1  152             Rx   d 8 00 00 00 00 00 00 00 00
 0.597442 1  1D5             Rx   d 8 C1 FF FF FF FF FF FF FF
 0.598683 1  15B             Rx   d 8 3F FF FF FF FF FF F0 00
 0.599950 1  130             Rx   d 8 00 00 00 00 00 00 00 00
 0.601179 1  12D             Rx   d 8 00 00 00 00 00 00 00 00
 0.602430 1  570             Rx   d 8 00 00 00 00 00 00 00 00
 0.608645 1  1A0             Rx   d 8 55 77 FF FF 00 00 77 00
 0.618756 1  17B             Rx   d 8 00 00 00 00 00 00 00 00
 0.620014 1  17A             Rx   d 8 00 00 00 00 C0 00 00 00
 0.628990 1  54E             Rx   d 8 00 00 00 00 00 00 00 00
 0.630208 1  558             Rx   d 8 FF FF FF FF FF FF FF F8
 0.631399 1  110             Rx   d 8 FC 3F 3C 00 C0 03 00 00
 0.632645 1  134             Rx   d 8 00 00 00 00 00 00 00 FF
 0.639082 1  557             Rx   d 8 FF FF FF FF FF FF FF F0
 0.640275 1  57D             Rx   d 8 FF 3F FF 3F 00 00 06 00
 0.641523 1  54D             Rx   d 8 00 00 00 00 00 00 00 00
 0.642742 1  15E             Rx   d 8 00 00 00 00 00 00 CC 03
 0.643987 1  55A             Rx   d 8 00 09 00 00 00 00 00 00
 0.649045 1  55C             Rx   d 8 00 00 00 00 00 30 C0 00
 0.650245 1  132             Rx   d 8 FF FF 33 70 3C 00 00 0F
 0.651466 1  55E             Rx   d 8 00 03 00 3F C0 FF 00 00
 0.652719 1  54F             Rx   d 8 00 00 00 00 00 00 00 00
 0.653942 1  1CB             Rx   d 8 FF C0 30 FC 00 00 00 00
 0.655129 1  1B1             Rx   d 8 04 01 01 00 01 01 00 04
 0.659065 1  57B             Rx   d 8 00 00 00 00 00 00 00 00
 0.660305 1  56B             Rx   d 8 00 00 00 00 00 00 00 00
 0.661548 1  56A             Rx   d 8 00 00 00 00 00 00 00 00
 0.662684 1  331             Rx   d 8 03 3C F3 CF 3C F3 CF 00
 0.663913 1  55D             Rx   d 8 00 00 00 00 00 00 FF 00
 0.665142 1  131             Rx   d 8 FF 00 FF 00 00 00 00 00
 0.666372 1  36E             Rx   d 8 00 00 00 C0 00 00 00 00
 0.668809 1  56C             Rx   d 8 00 00 00 00 00 00 00 00
 0.670053 1  1E8             Rx   d 8 00 00 00 00 00 00 00 00
 0.671289 1  57A             Rx   d 8 00 00 C0 00 00 00 00 00
 0.672469 1  16A             Rx   d 8 03 0F F0 00 0F 00 FF 3C
 0.673712 1  55B             Rx   d 8 00 00 00 00 00 00 00 00
 0.678851 1  44D             Rx   d 8 55 12 00 00 00 00 FF FF
 0.680018 1  1AA             Rx   d 8 FF FF FF FF 33 00 00 00
 0.681245 1  59A             Rx   d 8 7F FF 00 00 00 00 00 00
 0.682471 1  17F             Rx   d 8 FF FF CF FF FF 0F E0 00
 0.683701 1  126             Rx   d 8 0F 00 80 00 00 00 FF FF
 0.684949 1  15D             Rx   d 8 00 00 00 00 00 18 00 F0
 0.686157 1  195             Rx   d 8 00 00 00 01 E0 00 00 00
 0.687396 1  10E             Rx   d 8 00 00 00 00 00 00 00 00
 0.688607 1  3D5             Rx   d 8 FF 08 00 00 FC 00 00 00
 0.689852 1  363             Rx   d 8 00 00 00 00 00 00 00 00
 0.691100 1  167             Rx   d 8 FF C0 00 F0 70 00 00 00
 0.692296 1  360             Rx   d 8 00 0F 00 0F 0F 0F 00 00
 0.693533 1  56E             Rx   d 8 FF FF FF FF FF E0 00 00
 0.694742 1  169             Rx   d 8 0F 00 00 00 00 C0 03 E8
 0.696010 1  364             Rx   d 8 00 00 00 00 00 00 00 00
 0.697240 1  362             Rx   d 8 00 00 00 00 00 00 00 00
 0.698505 1  361             Rx   d 8 00 00 00 00 00 00 00 00
 0.699728 1  135             Rx   d 8 0C 00 00 00 FF FF FF 00
 0.700934 1  171             Rx   d 8 F0 E0 00 00 00 00 00 00
 0.702194 1  504             Rx   d 8 00 03 00 00 00 00 00 00
 0.703425 1  161             Rx   d 8 03 00 00 00 00 00 00 00
 0.704646 1  12A             Rx   d 8 00 00 00 00 00 00 E0 0C
 0.705877 1  158             Rx   d 8 00 00 00 00 F9 C0 03 FF
 0.707076 1  1B2             Rx   d 8 F0 F0 0F F3 C0 33 3C 00
 0.708787 1  1D1             Rx   d 8 00 00 00 00 00 00 03 00
 0.710037 1  2A4             Rx   d 8 FF FF FF FF FF FF FF 00
 0.711268 1  19E             Rx   d 8 00 00 00 00 00 00 00 00
 0.719060 1  1DF             Rx   d 8 FF FF 00 03 1F 80 F8 0C
 0.720297 1  1E5             Rx   d 8 00 0F FF FF FF 80 FF 00
 0.721536 1  164             Rx   d 8 00 00 00 00 00 00 00 00
 0.722703 1  173             Rx   d 8 C3 0F 6F 00 0C FF 7F 3C
 0.723948 1  1DA             Rx   d 8 00 00 00 30 00 00 00 00
 0.725210 1  1D0             Rx   d 8 00 00 00 00 00 00 00 00
 0.729125 1  1AB             Rx   d 8 FF FF FF FF FF 7E 03 00
 0.730358 1  1D2             Rx   d 8 FF FF FF FF 1F FF 00 00
 0.731579 1  12F             Rx   d 8 FF FF FF FF 3F FF FF CF
 0.732814 1  166             Rx   d 8 00 00 00 00 00 00 00 00
 0.734075 1  57E             Rx   d 8 00 00 00 00 00 00 00 00
 0.739089 1  197             Rx   d 8 FF FF 33 FF FF F0 00 00
 0.740269 1  19D             Rx   d 8 3F 3F 3F 00 F3 00 00 00
 0.741523 1  133             Rx   d 8 03 FF 00 00 00 00 00 FF
 0.742737 1  3CA             Rx   d 8 FF FF FF FF FF FF 00 00
 0.748698 1  1A3             Rx   d 8 FF 00 00 00 00 00 00 00
 0.749949 1  12C             Rx   d 8 00 00 00 00 00 00 00 00
 0.751179 1  1E7             Rx   d 8 FF FF FF FF FF FF FF 00
 0.752418 1  12B             Rx   d 8 00 00 00 00 00 00 00 00
 0.753637 1  115             Rx   d 8 FF FF FF FF FF FF FF 0F
 0.754860 1  17D             Rx   d 8 80 20 08 00 00 00 00 00
 0.756092 1  38F             Rx   d 8 FE 00 00 00 00 00 00 00
 0.757344 1  123             Rx   d 8 FF FF FF C0 FF FF FF FF
 0.758799 1  196             Rx   d 8 00 FF 00 00 00 F8 00 00
 0.760038 1  122             Rx   d 8 7F C3 FF FF FF FF FF FF
 0.768705 1  11E             Rx   d 8 FF FF FF 00 00 FF FF FF
 0.769949 1  3CC             Rx   d 8 F0 00 00 00 00 00 00 00
 0.778707 1  59A             Rx   d 8 7F FF 00 00 00 00 00 00
 0.779966 1  1D5             Rx   d 8 C1 FF FF FF FF FF FF FF
 0.781182 1  15B             Rx   d 8 3F FF FF FF FF FF F0 00
 0.782431 1  152             Rx   d 8 00 00 00 00 00 00 00 00
 0.783690 1  16D             Rx   d 8 00 00 00 00 00 00 00 00
 0.784944 1  15C             Rx   d 8 00 00 00 00 00 00 00 00
 0.786170 1  15A             Rx   d 8 00 00 3F FE 00 00 00 00
 0.787386 1  137             Rx   d 8 FF 00 00 00 00 00 00 00
 0.788630 1  1EC             Rx   d 8 00 00 00 03 00 00 00 00
 0.789874 1  192             Rx   d 8 00 00 00 00 00 00 00 00
 0.791129 1  1EB             Rx   d 8 00 0C 00 00 00 00 00 00
 0.792366 1  1D4             Rx   d 8 00 00 00 00 00 00 00 00
 0.793612 1  56D             Rx   d 8 00 00 00 00 00 00 00 00
 0.794858 1  138             Rx   d 8 00 00 00 00 00 00 00 00
 0.796106 1  165             Rx   d 8 00 00 00 00 00 00 00 00
 0.797356 1  16E             Rx   d 8 00 00 00 00 80 00 00 00
 0.798556 1  455             Rx   d 8 57 12 00 00 00 00 FF FF
 0.799801 1  12D             Rx   d 8 00 00 00 00 00 00 00 00
 0.801044 1  130             Rx   d 8 00 00 00 00 00 00 00 00
 0.802275 1  100             Rx   d 8 FF 00 00 FF 80 00 00 FF
 0.808992 1  1A0             Rx   d 8 55 77 FF FF 00 00 77 00
 0.819084 1  17B             Rx   d 8 00 00 00 00 00 00 00 00
 0.820309 1  17A             Rx   d 8 00 00 00 00 C0 00 00 00
 0.829062 1  54E             Rx   d 8 00 00 00 00 00 00 00 00
 0.830274 1  110             Rx   d 8 FC 3F 3C 00 C0 03 00 00
 0.831503 1  558             Rx   d 8 FF FF FF FF FF FF FF F8
 0.839032 1  55A             Rx   d 8 00 09 00 00 00 00 00 00
 0.840246 1  557             Rx   d 8 FF FF FF FF FF FF FF F0
 0.841491 1  15E             Rx   d 8 00 00 00 00 00 00 CC 03
 0.842720 1  54D             Rx   d 8 00 00 00 00 00 00 00 00
 0.843941 1  57D             Rx   d 8 FF 3F FF 3F 00 00 06 00
 0.848691 1  1CB             Rx   d 8 FF C0 30 FC 00 00 00 00
 0.849934 1  54F             Rx   d 8 00 00 00 00 00 00 00 00
 0.851165 1  55C             Rx   d 8 00 00 00 00 00 30 C0 00
 0.852392 1  55E             Rx   d 8 00 03 00 3F C0 FF 00 00
 0.854556 1  1B1             Rx   d 8 04 01 01 00 01 01 00 04
 0.858726 1  55D             Rx   d 8 00 00 00 00 00 00 FF 00
 0.859972 1  57B             Rx   d 8 00 00 00 00 00 00 00 00
 0.861217 1  56B             Rx   d 8 00 00 00 00 00 00 00 00
 0.862459 1  56A             Rx   d 8 00 00 00 00 00 00 00 00
 0.864587 1  36E             Rx   d 8 00 00 00 C0 00 00 00 00
 0.869031 1  1E8             Rx   d 8 00 00 00 00 00 00 00 00
 0.870217 1  16A             Rx   d 8 03 0F F0 00 0F 00 FF 3C
 0.871460 1  55B             Rx   d 8 00 00 00 00 00 00 00 00
 0.872717 1  56C             Rx   d 8 00 00 00 00 00 00 00 00
 0.873957 1  57A             Rx   d 8 00 00 C0 00 00 00 00 00
 0.878986 1  59A             Rx   d 8 7F FF 00 00 00 00 00 00
 0.880286 1  1AA             Rx   d 8 FF FF FF FF 33 00 00 00
 0.881511 1  10E             Rx   d 8 00 00 00 00 00 00 00 00
 0.882719 1  195             Rx   d 8 00 00 00 01 E0 00 00 00
 0.883958 1  15D             Rx   d 8 00 00 00 00 00 18 00 F0
 0.885179 1  17F             Rx   d 8 FF FF CF FF FF 0F E0 00
 0.886414 1  3D5             Rx   d 8 FF 08 00 00 FC 00 00 00
 0.889103 1  169             Rx   d 8 0F 00 00 00 00 C0 03 E8
 0.890336 1  56E             Rx   d 8 FF FF FF FF FF E0 00 00
 0.891586 1  135             Rx   d 8 0C 00 00 00 FF FF FF 00
 0.892775 1  121             Rx   d 8 FF FF 0F 00 0F FF FF FF
 0.899572 1  158             Rx   d 8 00 00 00 00 F9 C0 03 FF
 0.900793 1  12A             Rx   d 8 00 00 00 00 00 00 E0 0C
 0.902014 1  457             Rx   d 8 40 02 00 00 00 00 FF FF
 0.903265 1  504             Rx   d 8 00 03 00 00 00 00 00 00
 0.904491 1  161             Rx   d 8 03 00 00 00 00 00 00 00
 0.905701 1  171             Rx   d 8 F0 E0 00 00 00 00 00 00
 0.906966 1  136             Rx   d 8 00 00 00 00 00 0F 00 00
 0.908200 1  1B2             Rx   d 8 F0 F0 0F F3 C0 33 3C 00
 0.909378 1  19E             Rx   d 8 00 00 00 00 00 00 00 00
 0.910604 1  2A4             Rx   d 8 FF FF FF FF FF FF FF 00
 0.911840 1  1D1             Rx   d 8 00 00 00 00 00 00 03 00
 0.919635 1  1DA             Rx   d 8 00 00 00 30 00 00 00 00
 0.920877 1  1D0             Rx   d 8 00 00 00 00 00 00 00 00
 0.922047 1  173             Rx   d 8 C3 0F 6F 00 0C FF 7F 3C
 0.923291 1  1E5             Rx   d 8 00 0F FF FF FF 80 FF 00
 0.924566 1  164             Rx   d 8 00 00 00 00 00 00 00 00
 0.925752 1  1DF             Rx   d 8 FF FF 00 03 1F 80 F8 0C
 0.929584 1  166             Rx   d 8 00 00 00 00 00 00 00 00
 0.930912 1  57E             Rx   d 8 00 00 00 00 00 00 00 00
 0.932082 1  1AB             Rx   d 8 FF FF FF FF FF 7E 03 00
 0.933306 1  119             Rx   d 8 03 30 00 00 00 00 00 00
 0.934528 1  1D2             Rx   d 8 FF FF FF FF 1F FF 00 00
 0.939388 1  133             Rx   d 8 03 FF 00 00 00 00 00 FF
 0.940605 1  3CA             Rx   d 8 FF FF FF FF FF FF 00 00
 0.941821 1  19D             Rx   d 8 3F 3F 3F 00 F3 00 00 00
 0.949077 1  38F             Rx   d 8 FE 00 00 00 00 00 00 00
 0.950292 1  1A3             Rx   d 8 FF 00 00 00 00 00 00 00
 0.951525 1  17D             Rx   d 8 80 20 08 00 00 00 00 00
 0.952752 1  123             Rx   d 8 FF FF FF C0 FF FF FF FF
 0.953970 1  115             Rx   d 8 FF FF FF FF FF FF FF 0F
 0.955204 1  12B             Rx   d 8 00 00 00 00 00 00 00 00
 0.956446 1  1E7             Rx   d 8 FF FF FF FF FF FF FF 00
 0.957702 1  12C             Rx   d 8 00 00 00 00 00 00 00 00
 0.959110 1  122             Rx   d 8 7F C3 FF FF FF FF FF FF
 0.960263 1  196             Rx   d 8 00 FF 00 00 00 F8 00 00
 0.968952 1  11E             Rx   d 8 FF FF FF 00 00 FF FF FF
 0.970189 1  3CC             Rx   d 8 F0 00 00 00 00 00 00 00
 0.979084 1  59A             Rx   d 8 7F FF 00 00 00 00 00 00
 0.980305 1  165             Rx   d 8 00 00 00 00 00 00 00 00
 0.981519 1  16E             Rx   d 8 00 00 00 00 80 00 00 00
 0.982757 1  15B             Rx   d 8 3F FF FF FF FF FF F0 00
 0.984015 1  138             Rx   d 8 00 00 00 00 00 00 00 00
 0.985243 1  1D5             Rx   d 8 C1 FF FF FF FF FF FF FF
 0.986482 1  56D             Rx   d 8 00 00 00 00 00 00 00 00
 0.987767 1  15C             Rx   d 8 00 00 00 00 00 00 00 00
 0.988987 1  16D             Rx   d 8 00 00 00 00 00 00 00 00
 0.990234 1  152             Rx   d 8 00 00 00 00 00 00 00 00
 0.991521 1  1D4             Rx   d 8 00 00 00 00 00 00 00 00
 0.992725 1  1EC             Rx   d 8 00 00 00 03 00 00 00 00
 0.993951 1  137             Rx   d 8 FF 00 00 00 00 00 00 00
 0.995185 1  15A             Rx   d 8 00 00 3F FE 00 00 00 00
 0.996424 1  1EB             Rx   d 8 00 0C 00 00 00 00 00 00
 0.997672 1  192             Rx   d 8 00 00 00 00 00 00 00 00
 0.998948 1  130             Rx   d 8 00 00 00 00 00 00 00 00
 1.000165 1  12D             Rx   d 8 00 00 00 00 00 00 00 00
 1.003793 1  440             Rx   d 8 4D 12 00 00 00 00 FF FF
 1.008809 1  1A0             Rx   d 8 55 77 FF FF 00 00 77 00
 1.018797 1  17B             Rx   d 8 00 00 00 00 00 00 00 00
 1.020085 1  17A             Rx   d 8 00 00 00 00 C0 00 00 00
 1.028802 1  110             Rx   d 8 FC 3F 3C 00 C0 03 00 00
 1.030063 1  558             Rx   d 8 FF FF FF FF FF FF FF F8
 1.031276 1  54E             Rx   d 8 00 00 00 00 00 00 00 00
 1.038760 1  54D             Rx   d 8 00 00 00 00 00 00 00 00
 1.039972 1  55A             Rx   d 8 00 09 00 00 00 00 00 00
 1.041198 1  57D             Rx   d 8 FF 3F FF 3F 00 00 06 00
 1.042409 1  15E             Rx   d 8 00 00 00 00 00 00 CC 03
 1.043655 1  557             Rx   d 8 FF FF FF FF FF FF FF F0
 1.048753 1  55E             Rx   d 8 00 03 00 3F C0 FF 00 00
 1.049999 1  55C             Rx   d 8 00 00 00 00 00 30 C0 00
 1.051210 1  1CB             Rx   d 8 FF C0 30 FC 00 00 00 00
 1.052458 1  54F             Rx   d 8 00 00 00 00 00 00 00 00
 1.054618 1  1B1             Rx   d 8 04 01 01 00 01 01 00 04
 1.058762 1  56A             Rx   d 8 00 00 00 00 00 00 00 00
 1.060016 1  56B             Rx   d 8 00 00 00 00 00 00 00 00
 1.061229 1  55D             Rx   d 8 00 00 00 00 00 00 FF 00
 1.062472 1  57B             Rx   d 8 00 00 00 00 00 00 00 00
 1.064642 1  36E             Rx   d 8 00 00 00 C0 00 00 00 00
 1.068774 1  56C             Rx   d 8 00 00 00 00 00 00 00 00
 1.069997 1  57A             Rx   d 8 00 00 C0 00 00 00 00 00
 1.071280 1  1E8             Rx   d 8 00 00 00 00 00 00 00 00
 1.072444 1  16A             Rx   d 8 03 0F F0 00 0F 00 FF 3C
 1.073678 1  55B             Rx   d 8 00 00 00 00 00 00 00 00
 1.078784 1  59A             Rx   d 8 7F FF 00 00 00 00 00 00
 1.080034 1  17F             Rx   d 8 FF FF CF FF FF 0F E0 00
 1.081222 1  15D             Rx   d 8 00 00 00 00 00 18 00 F0
 1.082438 1  1AA             Rx   d 8 FF FF FF FF 33 00 00 00
 1.083671 1  10E             Rx   d 8 00 00 00 00 00 00 00 00
 1.084897 1  195             Rx   d 8 00 00 00 01 E0 00 00 00
 1.086108 1  3D5             Rx   d 8 FF 08 00 00 FC 00 00 00
 1.088731 1  169             Rx   d 8 0F 00 00 00 00 C0 03 E8
 1.089936 1  135             Rx   d 8 0C 00 00 00 FF FF FF 00
 1.091187 1  56E             Rx   d 8 FF FF FF FF FF E0 00 00
 1.099077 1  171             Rx   d 8 F0 E0 00 00 00 00 00 00
 1.100322 1  504             Rx   d 8 00 03 00 00 00 00 00 00
 1.101542 1  12A             Rx   d 8 00 00 00 00 00 00 E0 0C
 1.102785 1  158             Rx   d 8 00 00 00 00 F9 C0 03 FF
 1.104023 1  161             Rx   d 8 03 00 00 00 00 00 00 00
 1.105177 1  1B2             Rx   d 8 F0 F0 0F F3 C0 33 3C 00
 1.106387 1  44D             Rx   d 8 55 12 00 00 00 00 FF FF
 1.108756 1  2A4             Rx   d 8 FF FF FF FF FF FF FF 00
 1.109972 1  1D1             Rx   d 8 00 00 00 00 00 00 03 00
 1.111202 1  19E             Rx   d 8 00 00 00 00 00 00 00 00
 1.119165 1  1DF             Rx   d 8 FF FF 00 03 1F 80 F8 0C
 1.120405 1  164             Rx   d 8 00 00 00 00 00 00 00 00
 1.121638 1  1E5             Rx   d 8 00 0F FF FF FF 80 FF 00
 1.122847 1  173             Rx   d 8 C3 0F 6F 00 0C FF 7F 3C
 1.124057 1  1DA             Rx   d 8 00 00 00 30 00 00 00 00
 1.125323 1  1D0             Rx   d 8 00 00 00 00 00 00 00 00
 1.129114 1  1D2             Rx   d 8 FF FF FF FF 1F FF 00 00
 1.130356 1  166             Rx   d 8 00 00 00 00 00 00 00 00
 1.131596 1  1AB             Rx   d 8 FF FF FF FF FF 7E 03 00
 1.132857 1  57E             Rx   d 8 00 00 00 00 00 00 00 00
 1.139154 1  133             Rx   d 8 03 FF 00 00 00 00 00 FF
 1.140326 1  19D             Rx   d 8 3F 3F 3F 00 F3 00 00 00
 1.141569 1  3CA             Rx   d 8 FF FF FF FF FF FF 00 00
 1.149101 1  12C             Rx   d 8 00 00 00 00 00 00 00 00
 1.150329 1  1E7             Rx   d 8 FF FF FF FF FF FF FF 00
 1.151568 1  38F             Rx   d 8 FE 00 00 00 00 00 00 00
 1.152800 1  12B             Rx   d 8 00 00 00 00 00 00 00 00
 1.154022 1  115             Rx   d 8 FF FF FF FF FF FF FF 0F
 1.155262 1  123             Rx   d 8 FF FF FF C0 FF FF FF FF
 1.156474 1  17D             Rx   d 8 80 20 08 00 00 00 00 00
 1.157730 1  1A3             Rx   d 8 FF 00 00 00 00 00 00 00
 1.159140 1  122             Rx   d 8 7F C3 FF FF FF FF FF FF
 1.160370 1  196             Rx   d 8 00 FF 00 00 00 F8 00 00
 1.168861 1  11E             Rx   d 8 FF FF FF 00 00 FF FF FF
 1.170115 1  3CC             Rx   d 8 F0 00 00 00 00 00 00 00
 1.179308 1  59A             Rx   d 8 7F FF 00 00 00 00 00 00
 1.180581 1  1EB             Rx   d 8 00 0C 00 00 00 00 00 00
 1.181786 1  192             Rx   d 8 00 00 00 00 00 00 00 00
 1.183028 1  516             Rx   d 8 00 00 00 00 00 00 00 00
 1.184264 1  16E             Rx   d 8 00 00 00 00 80 00 00 00
 1.185516 1  165             Rx   d 8 00 00 00 00 00 00 00 00
 1.186738 1  137             Rx   d 8 FF 00 00 00 00 00 00 00
 1.187982 1  1D5             Rx   d 8 C1 FF FF FF FF FF FF FF
 1.189242 1  517             Rx   d 8 00 00 00 00 00 00 00 00
 1.190474 1  138             Rx   d 8 00 00 00 00 00 00 00 00
 1.191729 1  15A             Rx   d 8 00 00 3F FE 00 00 00 00
 1.192944 1  15B             Rx   d 8 3F FF FF FF FF FF F0 00
 1.194182 1  1EC             Rx   d 8 00 00 00 03 00 00 00 00
 1.195424 1  16D             Rx   d 8 00 00 00 00 00 00 00 00
 1.196682 1  15C             Rx   d 8 00 00 00 00 00 00 00 00
 1.197926 1  56D             Rx   d 8 00 00 00 00 00 00 00 00
 1.199164 1  515             Rx   d 8 00 00 00 00 00 00 00 00
 1.200413 1  1D4             Rx   d 8 00 00 00 00 00 00 00 00
 1.201627 1  509             Rx   d 8 00 3F FF FF FF FF CF 00
 1.202875 1  560             Rx   d 8 FF 1F 00 00 00 00 00 00
 1.204119 1  152             Rx   d 8 00 00 00 00 00 00 00 00
 1.205369 1  19F             Rx   d 8 03 FF 03 FF 00 00 0C 00
 1.206605 1  12D             Rx   d 8 00 00 00 00 00 00 00 00
 1.207848 1  174             Rx   d 8 FF 0F 38 FF C0 03 00 00
 1.209081 1  130             Rx   d 8 00 00 00 00 00 00 00 00
 1.210281 1  455             Rx   d 8 57 12 00 00 00 00 FF FF
 1.211534 1  51C             Rx   d 8 07 FF FF FF FF FF FF FF
 1.212731 1  1A0             Rx   d 8 55 77 FF FF 00 00 77 00
 1.218879 1  17A             Rx   d 8 00 00 00 00 C0 00 00 00
 1.220061 1  17B             Rx   d 8 00 00 00 00 00 00 00 00
 1.228944 1  558             Rx   d 8 FF FF FF FF FF FF FF F8
 1.230164 1  54E             Rx   d 8 00 00 00 00 00 00 00 00
 1.231339 1  110             Rx   d 8 FC 3F 3C 00 C0 03 00 00
 1.238758 1  15E             Rx   d 8 00 00 00 00 00 00 CC 03
 1.240016 1  557             Rx   d 8 FF FF FF FF FF FF FF F0
 1.241249 1  54D             Rx   d 8 00 00 00 00 00 00 00 00
 1.242452 1  57D             Rx   d 8 FF 3F FF 3F 00 00 06 00
 1.243691 1  55A             Rx   d 8 00 09 00 00 00 00 00 00
 1.248809 1  54F             Rx   d 8 00 00 00 00 00 00 00 00
 1.250016 1  1CB             Rx   d 8 FF C0 30 FC 00 00 00 00
 1.251229 1  55E             Rx   d 8 00 03 00 3F C0 FF 00 00
 1.252467 1  55C             Rx   d 8 00 00 00 00 00 30 C0 00
 1.254622 1  1B1             Rx   d 8 04 01 01 00 01 01 00 04
 1.258776 1  55D             Rx   d 8 00 00 00 00 00 00 FF 00
 1.260078 1  57B             Rx   d 8 00 00 00 00 00 00 00 00
 1.261263 1  56B             Rx   d 8 00 00 00 00 00 00 00 00
 1.262501 1  56A             Rx   d 8 00 00 00 00 00 00 00 00
 1.263644 1  331             Rx   d 8 03 3C F3 CF 3C F3 CF 00
 1.264873 1  36E             Rx   d 8 00 00 00 C0 00 00 00 00
 1.268785 1  16A             Rx   d 8 03 0F F0 00 0F 00 FF 3C
 1.270006 1  57A             Rx   d 8 00 00 C0 00 00 00 00 00
 1.271257 1  55B             Rx   d 8 00 00 00 00 00 00 00 00
 1.272516 1  56C             Rx   d 8 00 00 00 00 00 00 00 00
 1.273764 1  1E8             Rx   d 8 00 00 00 00 00 00 00 00
 1.278933 1  59A             Rx   d 8 7F FF 00 00 00 00 00 00
 1.280142 1  17F             Rx   d 8 FF FF CF FF FF 0F E0 00
 1.281388 1  195             Rx   d 8 00 00 00 01 E0 00 00 00
 1.282564 1  1AA             Rx   d 8 FF FF FF FF 33 00 00 00
 1.283807 1  10E             Rx   d 8 00 00 00 00 00 00 00 00
 1.285024 1  15D             Rx   d 8 00 00 00 00 00 18 00 F0
 1.286252 1  126             Rx   d 8 0F 00 80 00 00 00 FF FF
 1.287468 1  3D5             Rx   d 8 FF 08 00 00 FC 00 00 00
 1.288765 1  135             Rx   d 8 0C 00 00 00 FF FF FF 00
 1.290020 1  56E             Rx   d 8 FF FF FF FF FF E0 00 00
 1.291305 1  363             Rx   d 8 00 00 00 00 00 00 00 00
 1.292476 1  360             Rx   d 8 00 0F 00 0F 0F 0F 00 00
 1.293733 1  361             Rx   d 8 00 00 00 00 00 00 00 00
 1.295036 1  362             Rx   d 8 00 00 00 00 00 00 00 00
 1.296234 1  364             Rx   d 8 00 00 00 00 00 00 00 00
 1.297435 1  169             Rx   d 8 0F 00 00 00 00 C0 03 E8
 1.298841 1  158             Rx   d 8 00 00 00 00 F9 C0 03 FF
 1.300043 1  161             Rx   d 8 03 00 00 00 00 00 00 00
 1.301250 1  12A             Rx   d 8 00 00 00 00 00 00 E0 0C
 1.302515 1  504             Rx   d 8 00 03 00 00 00 00 00 00
 1.303731 1  171             Rx   d 8 F0 E0 00 00 00 00 00 00
 1.304898 1  1B2             Rx   d 8 F0 F0 0F F3 C0 33 3C 00
 1.309069 1  1D1             Rx   d 8 00 00 00 00 00 00 03 00
 1.310297 1  19E             Rx   d 8 00 00 00 00 00 00 00 00
 1.311552 1  2A4             Rx   d 8 FF FF FF FF FF FF FF 00
 1.312765 1  457             Rx   d 8 40 02 00 00 00 00 FF FF
 1.318880 1  1D0             Rx   d 8 00 00 00 00 00 00 00 00
 1.320074 1  1DA             Rx   d 8 00 00 00 30 00 00 00 00
 1.321241 1  173             Rx   d 8 C3 0F 6F 00 0C FF 7F 3C
 1.322485 1  1E5             Rx   d 8 00 0F FF FF FF 80 FF 00
 1.323775 1  164             Rx   d 8 00 00 00 00 00 00 00 00
 1.324998 1  1DF             Rx   d 8 FF FF 00 03 1F 80 F8 0C
 1.329026 1  1AB             Rx   d 8 FF FF FF FF FF 7E 03 00
 1.330268 1  1CE             Rx   d 8 00 00 00 00 00 00 00 00
 1.331523 1  57E             Rx   d 8 00 00 00 00 00 00 00 00
 1.332763 1  166             Rx   d 8 00 00 00 00 00 00 00 00
 1.333997 1  1D2             Rx   d 8 FF FF FF FF 1F FF 00 00
 1.339048 1  1C1             Rx   d 8 FF FF FF FF FF FF FF FF
 1.340241 1  19D             Rx   d 8 3F 3F 3F 00 F3 00 00 00
 1.341516 1  3CA             Rx   d 8 FF FF FF FF FF FF 00 00
 1.342719 1  133             Rx   d 8 03 FF 00 00 00 00 00 FF
 1.349040 1  1A3             Rx   d 8 FF 00 00 00 00 00 00 00
 1.350232 1  17D             Rx   d 8 80 20 08 00 00 00 00 00
 1.351477 1  123             Rx   d 8 FF FF FF C0 FF FF FF FF
 1.352727 1  12C             Rx   d 8 00 00 00 00 00 00 00 00
 1.353941 1  115             Rx   d 8 FF FF FF FF FF FF FF 0F
 1.355184 1  12B             Rx   d 8 00 00 00 00 00 00 00 00
 1.356431 1  38F             Rx   d 8 FE 00 00 00 00 00 00 00
 1.357667 1  1E7             Rx   d 8 FF FF FF FF FF FF FF 00
 1.358908 1  122             Rx   d 8 7F C3 FF FF FF FF FF FF
 1.360116 1  196             Rx   d 8 00 FF 00 00 00 F8 00 00
 1.368924 1  3CC             Rx   d 8 F0 00 00 00 00 00 00 00
 1.370192 1  1BC             Rx   d 8 FF FF FF FF FF 00 00 00
 1.371427 1  11E             Rx   d 8 FF FF FF 00 00 FF FF FF
 1.379274 1  59A             Rx   d 8 7F FF 00 00 00 00 00 00
 1.380507 1  152             Rx   d 8 00 00 00 00 00 00 00 00
 1.381794 1  192             Rx   d 8 00 00 00 00 00 00 00 00
 1.383003 1  1EB             Rx   d 8 00 0C 00 00 00 00 00 00
 1.384243 1  1D4             Rx   d 8 00 00 00 00 00 00 00 00
 1.385494 1  16E             Rx   d 8 00 00 00 00 80 00 00 00
 1.386723 1  137             Rx   d 8 FF 00 00 00 00 00 00 00
 1.387983 1  1D5             Rx   d 8 C1 FF FF FF FF FF FF FF
 1.389215 1  165             Rx   d 8 00 00 00 00 00 00 00 00
 1.390466 1  1EC             Rx   d 8 00 00 00 03 00 00 00 00
 1.391738 1  138             Rx   d 8 00 00 00 00 00 00 00 00
 1.392949 1  15B             Rx   d 8 3F FF FF FF FF FF F0 00
 1.394178 1  571             Rx   d 8 7F 00 00 00 00 00 00 00
 1.395422 1  15A             Rx   d 8 00 00 3F FE 00 00 00 00
 1.396656 1  16D             Rx   d 8 00 00 00 00 00 00 00 00
 1.397902 1  5D8             Rx   d 8 00 00 00 00 00 00 00 00
 1.399143 1  56D             Rx   d 8 00 00 00 00 00 00 00 00
 1.400402 1  15C             Rx   d 8 00 00 00 00 00 00 00 00
 1.401658 1  130             Rx   d 8 00 00 00 00 00 00 00 00
 1.402895 1  12D             Rx   d 8 00 00 00 00 00 00 00 00
 1.404130 1  1BB             Rx   d 8 FF FF FF FF 00 00 00 00
 1.405333 1  1C0             Rx   d 8 FF 0F 03 00 0F 00 00 00
 1.409360 1  1A0             Rx   d 8 55 77 FF FF 00 00 77 00
 1.415146 1  440             Rx   d 8 4D 12 00 00 00 00 FF FF
 1.419313 1  17B             Rx   d 8 00 00 00 00 00 00 00 00
 1.420549 1  17A             Rx   d 8 00 00 00 00 C0 00 00 00
 1.429157 1  54E             Rx   d 8 00 00 00 00 00 00 00 00
 1.430339 1  110             Rx   d 8 FC 3F 3C 00 C0 03 00 00
 1.431572 1  558             Rx   d 8 FF FF FF FF FF FF FF F8
 1.432827 1  18A             Rx   d 8 00 00 00 00 00 00 00 00
 1.439029 1  57D             Rx   d 8 FF 3F FF 3F 00 00 06 00
 1.440239 1  55A             Rx   d 8 00 09 00 00 00 00 00 00
 1.441454 1  15E             Rx   d 8 00 00 00 00 00 00 CC 03
 1.442699 1  54D             Rx   d 8 00 00 00 00 00 00 00 00
 1.443942 1  557             Rx   d 8 FF FF FF FF FF FF FF F0
 1.448866 1  18B             Rx   d 8 00 00 00 00 00 00 00 00
 1.450075 1  55E             Rx   d 8 00 03 00 3F C0 FF 00 00
 1.451325 1  54F             Rx   d 8 00 00 00 00 00 00 00 00
 1.452564 1  55C             Rx   d 8 00 00 00 00 00 30 C0 00
 1.453784 1  1CB             Rx   d 8 FF C0 30 FC 00 00 00 00
 1.455044 1  1B1             Rx   d 8 04 01 01 00 01 01 00 04
 1.458923 1  56A             Rx   d 8 00 00 00 00 00 00 00 00
 1.460206 1  57B             Rx   d 8 00 00 00 00 00 00 00 00
 1.461395 1  55D             Rx   d 8 00 00 00 00 00 00 FF 00
 1.462621 1  56B             Rx   d 8 00 00 00 00 00 00 00 00
 1.464668 1  36E             Rx   d 8 00 00 00 C0 00 00 00 00
 1.469310 1  57A             Rx   d 8 00 00 C0 00 00 00 00 00
 1.470567 1  56C             Rx   d 8 00 00 00 00 00 00 00 00
 1.471827 1  1E8             Rx   d 8 00 00 00 00 00 00 00 00
 1.473005 1  16A             Rx   d 8 03 0F F0 00 0F 00 FF 3C
 1.474256 1  55B             Rx   d 8 00 00 00 00 00 00 00 00
 1.478893 1  59A             Rx   d 8 7F FF 00 00 00 00 00 00
 1.480092 1  5DA             Rx   d 8 7F FF FC 00 00 00 00 00
 1.481305 1  15D             Rx   d 8 00 00 00 00 00 18 00 F0
 1.482584 1  10E             Rx   d 8 00 00 00 00 00 00 00 00
 1.483779 1  17F             Rx   d 8 FF FF CF FF FF 0F E0 00
 1.485007 1  1AA             Rx   d 8 FF FF FF FF 33 00 00 00
 1.486211 1  3D5             Rx   d 8 FF 08 00 00 FC 00 00 00
 1.487446 1  5DB             Rx   d 8 7F FF FC 00 00 1F FF FF
 1.488680 1  5DC             Rx   d 8 00 00 00 00 0F FF FF FF
 1.489896 1  195             Rx   d 8 00 00 00 01 E0 00 00 00
 1.491154 1  56E             Rx   d 8 FF FF FF FF FF E0 00 00
 1.492356 1  169             Rx   d 8 0F 00 00 00 00 C0 03 E8
 1.493585 1  135             Rx   d 8 0C 00 00 00 FF FF FF 00
 1.494783 1  121             Rx   d 8 FF FF 0F 00 0F FF FF FF
 1.499229 1  504             Rx   d 8 00 03 00 00 00 00 00 00
 1.500525 1  136             Rx   d 8 00 00 00 00 00 0F 00 00
 1.501677 1  171             Rx   d 8 F0 E0 00 00 00 00 00 00
 1.502932 1  12A             Rx   d 8 00 00 00 00 00 00 E0 0C
 1.504155 1  161             Rx   d 8 03 00 00 00 00 00 00 00
 1.505389 1  158             Rx   d 8 00 00 00 00 F9 C0 03 FF
 1.506563 1  1B2             Rx   d 8 F0 F0 0F F3 C0 33 3C 00
 1.509032 1  2A4             Rx   d 8 FF FF FF FF FF FF FF 00
 1.510284 1  19E             Rx   d 8 00 00 00 00 00 00 00 00
 1.511517 1  1D1             Rx   d 8 00 00 00 00 00 00 03 00
 1.517004 1  44D             Rx   d 8 55 12 00 00 00 00 FF FF
 1.518909 1  1D0             Rx   d 8 00 00 00 00 00 00 00 00
 1.520119 1  164             Rx   d 8 00 00 00 00 00 00 00 00
 1.521328 1  1DF             Rx   d 8 FF FF 00 03 1F 80 F8 0C
 1.522578 1  1E5             Rx   d 8 00 0F FF FF FF 80 FF 00
 1.523837 1  1DA             Rx   d 8 00 00 00 30 00 00 00 00
 1.524996 1  173             Rx   d 8 C3 0F 6F 00 0C FF 7F 3C
 1.529140 1  531             Rx   d 8 FF 00 FF 00 00 00 00 00
 1.530360 1  119             Rx   d 8 03 30 00 00 00 00 00 00
 1.531599 1  1D2             Rx   d 8 FF FF FF FF 1F FF 00 00
 1.532823 1  1AB             Rx   d 8 FF FF FF FF FF 7E 03 00
 1.534073 1  166             Rx   d 8 00 00 00 00 00 00 00 00
 1.535323 1  57E             Rx   d 8 00 00 00 00 00 00 00 00
 1.539218 1  3CA             Rx   d 8 FF FF FF FF FF FF 00 00
 1.540443 1  133             Rx   d 8 03 FF 00 00 00 00 00 FF
 1.541648 1  19D             Rx   d 8 3F 3F 3F 00 F3 00 00 00
 1.549294 1  1E7             Rx   d 8 FF FF FF FF FF FF FF 00
 1.550505 1  38F             Rx   d 8 FE 00 00 00 00 00 00 00
 1.551732 1  1A3             Rx   d 8 FF 00 00 00 00 00 00 00
 1.552969 1  12B             Rx   d 8 00 00 00 00 00 00 00 00
 1.554188 1  115             Rx   d 8 FF FF FF FF FF FF FF 0F
 1.555439 1  12C             Rx   d 8 00 00 00 00 00 00 00 00
 1.556683 1  123             Rx   d 8 FF FF FF C0 FF FF FF FF
 1.557918 1  17D             Rx   d 8 80 20 08 00 00 00 00 00
 1.559130 1  122             Rx   d 8 7F C3 FF FF FF FF FF FF
 1.560361 1  196             Rx   d 8 00 FF 00 00 00 F8 00 00
 1.568855 1  3CC             Rx   d 8 F0 00 00 00 00 00 00 00
 1.570077 1  11E             Rx   d 8 FF FF FF 00 00 FF FF FF
 1.579200 1  59A             Rx   d 8 7F FF 00 00 00 00 00 00
 1.580417 1  56D             Rx   d 8 00 00 00 00 00 00 00 00
 1.581682 1  15C             Rx   d 8 00 00 00 00 00 00 00 00
 1.583034 1  1D4             Rx   d 8 00 00 00 00 00 00 00 00
 1.584169 1  16D             Rx   d 8 00 00 00 00 00 00 00 00
 1.585433 1  1EB             Rx   d 8 00 0C 00 00 00 00 00 00
 1.586657 1  192             Rx   d 8 00 00 00 00 00 00 00 00
 1.587896 1  56F             Rx   d 8 00 00 00 00 00 00 00 00
 1.589128 1  152             Rx   d 8 00 00 00 00 00 00 00 00
 1.590357 1  15A             Rx   d 8 00 00 3F FE 00 00 00 00
 1.591648 1  165             Rx   d 8 00 00 00 00 00 00 00 00
 1.592861 1  1D5             Rx   d 8 C1 FF FF FF FF FF FF FF
 1.594124 1  16E             Rx   d 8 00 00 00 00 80 00 00 00
 1.595345 1  137             Rx   d 8 FF 00 00 00 00 00 00 00
 1.596578 1  1EC             Rx   d 8 00 00 00 03 00 00 00 00
 1.597824 1  15B             Rx   d 8 3F FF FF FF FF FF F0 00
 1.599084 1  138             Rx   d 8 00 00 00 00 00 00 00 00
 1.600310 1  12D             Rx   d 8 00 00 00 00 00 00 00 00
 1.601562 1  130             Rx   d 8 00 00 00 00 00 00 00 00
 1.602851 1  570             Rx   d 8 00 00 00 00 00 00 00 00
 1.608847 1  1A0             Rx   d 8 55 77 FF FF 00 00 77 00
 1.618737 1  455             Rx   d 8 57 12 00 00 00 00 FF FF
 1.619954 1  17A             Rx   d 8 00 00 00 00 C0 00 00 00
 1.621193 1  17B             Rx   d 8 00 00 00 00 00 00 00 00
 1.629212 1  134             Rx   d 8 00 00 00 00 00 00 00 FF
 1.630446 1  54E             Rx   d 8 00 00 00 00 00 00 00 00
 1.631681 1  558             Rx   d 8 FF FF FF FF FF FF FF F8
 1.632890 1  110             Rx   d 8 FC 3F 3C 00 C0 03 00 00
 1.639163 1  557             Rx   d 8 FF FF FF FF FF FF FF F0
 1.640395 1  54D             Rx   d 8 00 00 00 00 00 00 00 00
 1.641623 1  57D             Rx   d 8 FF 3F FF 3F 00 00 06 00
 1.642930 1  15E             Rx   d 8 00 00 00 00 00 00 CC 03
 1.644111 1  55A             Rx   d 8 00 09 00 00 00 00 00 00
 1.649215 1  55C             Rx   d 8 00 00 00 00 00 30 C0 00
 1.650398 1  1CB             Rx   d 8 FF C0 30 FC 00 00 00 00
 1.651613 1  55E             Rx   d 8 00 03 00 3F C0 FF 00 00
 1.652860 1  54F             Rx   d 8 00 00 00 00 00 00 00 00
 1.654060 1  132             Rx   d 8 FF FF 33 70 3C 00 00 0F
 1.655262 1  1B1             Rx   d 8 04 01 01 00 01 01 00 04
 1.659173 1  131             Rx   d 8 FF 00 FF 00 00 00 00 00
 1.660419 1  56B             Rx   d 8 00 00 00 00 00 00 00 00
 1.661643 1  55D             Rx   d 8 00 00 00 00 00 00 FF 00
 1.662892 1  56A             Rx   d 8 00 00 00 00 00 00 00 00
 1.664135 1  57B             Rx   d 8 00 00 00 00 00 00 00 00
 1.665361 1  36E             Rx   d 8 00 00 00 C0 00 00 00 00
 1.669289 1  55B             Rx   d 8 00 00 00 00 00 00 00 00
 1.670555 1  56C             Rx   d 8 00 00 00 00 00 00 00 00
 1.671791 1  57A             Rx   d 8 00 00 C0 00 00 00 00 00
 1.673036 1  1E8             Rx   d 8 00 00 00 00 00 00 00 00
 1.674218 1  16A             Rx   d 8 03 0F F0 00 0F 00 FF 3C
 1.679116 1  59A             Rx   d 8 7F FF 00 00 00 00 00 00
 1.680299 1  195             Rx   d 8 00 00 00 01 E0 00 00 00
 1.681524 1  17F             Rx   d 8 FF FF CF FF FF 0F E0 00
 1.682739 1  15D             Rx   d 8 00 00 00 00 00 18 00 F0
 1.683988 1  10E             Rx   d 8 00 00 00 00 00 00 00 00
 1.685199 1  1AA             Rx   d 8 FF FF FF FF 33 00 00 00
 1.686434 1  3D5             Rx   d 8 FF 08 00 00 FC 00 00 00
 1.688810 1  135             Rx   d 8 0C 00 00 00 FF FF FF 00
 1.690030 1  167             Rx   d 8 FF C0 00 F0 70 00 00 00
 1.691265 1  169             Rx   d 8 0F 00 00 00 00 C0 03 E8
 1.692487 1  56E             Rx   d 8 FF FF FF FF FF E0 00 00
 1.698787 1  161             Rx   d 8 03 00 00 00 00 00 00 00
 1.700032 1  504             Rx   d 8 00 03 00 00 00 00 00 00
 1.701250 1  158             Rx   d 8 00 00 00 00 F9 C0 03 FF
 1.702472 1  12A             Rx   d 8 00 00 00 00 00 00 E0 0C
 1.703681 1  171             Rx   d 8 F0 E0 00 00 00 00 00 00
 1.704851 1  1B2             Rx   d 8 F0 F0 0F F3 C0 33 3C 00
 1.708687 1  19E             Rx   d 8 00 00 00 00 00 00 00 00
 1.709895 1  1D1             Rx   d 8 00 00 00 00 00 00 03 00
 1.711159 1  2A4             Rx   d 8 FF FF FF FF FF FF FF 00
 1.719006 1  1DA             Rx   d 8 00 00 00 30 00 00 00 00
 1.720178 1  173             Rx   d 8 C3 0F 6F 00 0C FF 7F 3C
 1.721421 1  1D0             Rx   d 8 00 00 00 00 00 00 00 00
 1.722665 1  1E5             Rx   d 8 00 0F FF FF FF 80 FF 00
 1.723874 1  1DF             Rx   d 8 FF FF 00 03 1F 80 F8 0C
 1.725157 1  164             Rx   d 8 00 00 00 00 00 00 00 00
 1.726346 1  457             Rx   d 8 40 02 00 00 00 00 FF FF
 1.728897 1  1D2             Rx   d 8 FF FF FF FF 1F FF 00 00
 1.730155 1  57E             Rx   d 8 00 00 00 00 00 00 00 00
 1.731394 1  166             Rx   d 8 00 00 00 00 00 00 00 00
 1.732608 1  12F             Rx   d 8 FF FF FF FF 3F FF FF CF
 1.733845 1  1AB             Rx   d 8 FF FF FF FF FF 7E 03 00
 1.739074 1  19D             Rx   d 8 3F 3F 3F 00 F3 00 00 00
 1.740302 1  197             Rx   d 8 FF FF 33 FF FF F0 00 00
 1.741545 1  3CA             Rx   d 8 FF FF FF FF FF FF 00 00
 1.742770 1  133             Rx   d 8 03 FF 00 00 00 00 00 FF
 1.749121 1  17D             Rx   d 8 80 20 08 00 00 00 00 00
 1.750327 1  123             Rx   d 8 FF FF FF C0 FF FF FF FF
 1.751572 1  12C             Rx   d 8 00 00 00 00 00 00 00 00
 1.752801 1  1E7             Rx   d 8 FF FF FF FF FF FF FF 00
 1.754021 1  115             Rx   d 8 FF FF FF FF FF FF FF 0F
 1.755268 1  12B             Rx   d 8 00 00 00 00 00 00 00 00
 1.756500 1  1A3             Rx   d 8 FF 00 00 00 00 00 00 00
 1.757762 1  38F             Rx   d 8 FE 00 00 00 00 00 00 00
 1.759077 1  196             Rx   d 8 00 FF 00 00 00 F8 00 00
 1.760287 1  122             Rx   d 8 7F C3 FF FF FF FF FF FF
 1.768843 1  11E             Rx   d 8 FF FF FF 00 00 FF FF FF
 1.770095 1  3CC             Rx   d 8 F0 00 00 00 00 00 00 00
 1.779138 1  59A             Rx   d 8 7F FF 00 00 00 00 00 00
 1.780352 1  15B             Rx   d 8 3F FF FF FF FF FF F0 00
 1.781598 1  138             Rx   d 8 00 00 00 00 00 00 00 00
 1.782867 1  1EC             Rx   d 8 00 00 00 03 00 00 00 00
 1.784076 1  137             Rx   d 8 FF 00 00 00 00 00 00 00
 1.785308 1  16D             Rx   d 8 00 00 00 00 00 00 00 00
 1.786559 1  1D4             Rx   d 8 00 00 00 00 00 00 00 00
 1.787817 1  15C             Rx   d 8 00 00 00 00 00 00 00 00
 1.789066 1  56D             Rx   d 8 00 00 00 00 00 00 00 00
 1.790338 1  16E             Rx   d 8 00 00 00 00 80 00 00 00
 1.791575 1  152             Rx   d 8 00 00 00 00 00 00 00 00
 1.792792 1  1EB             Rx   d 8 00 0C 00 00 00 00 00 00
 1.794045 1  192             Rx   d 8 00 00 00 00 00 00 00 00
 1.795290 1  1D5             Rx   d 8 C1 FF FF FF FF FF FF FF
 1.796555 1  165             Rx   d 8 00 00 00 00 00 00 00 00
 1.797774 1  15A             Rx   d 8 00 00 3F FE 00 00 00 00
 1.799025 1  130             Rx   d 8 00 00 00 00 00 00 00 00
 1.800254 1  12D             Rx   d 8 00 00 00 00 00 00 00 00
 1.808779 1  1A0             Rx   d 8 55 77 FF FF 00 00 77 00
 1.818866 1  17A             Rx   d 8 00 00 00 00 C0 00 00 00
 1.820094 1  17B             Rx   d 8 00 00 00 00 00 00 00 00
 1.828889 1  440             Rx   d 8 4D 12 00 00 00 00 FF FF
 1.830079 1  110             Rx   d 8 FC 3F 3C 00 C0 03 00 00
 1.831311 1  558             Rx   d 8 FF FF FF FF FF FF FF F8
 1.832558 1  54E             Rx   d 8 00 00 00 00 00 00 00 00
 1.838923 1  55A             Rx   d 8 00 09 00 00 00 00 00 00
 1.840078 1  15E             Rx   d 8 00 00 00 00 00 00 CC 03
 1.841354 1  557             Rx   d 8 FF FF FF FF FF FF FF F0
 1.842536 1  57D             Rx   d 8 FF 3F FF 3F 00 00 06 00
 1.843781 1  54D             Rx   d 8 00 00 00 00 00 00 00 00
 1.848934 1  54F             Rx   d 8 00 00 00 00 00 00 00 00
 1.850109 1  1CB             Rx   d 8 FF C0 30 FC 00 00 00 00
 1.851345 1  55C             Rx   d 8 00 00 00 00 00 30 C0 00
 1.852572 1  55E             Rx   d 8 00 03 00 3F C0 FF 00 00
 1.854626 1  1B1             Rx   d 8 04 01 01 00 01 01 00 04
 1.858885 1  56A             Rx   d 8 00 00 00 00 00 00 00 00
 1.860120 1  57B             Rx   d 8 00 00 00 00 00 00 00 00
 1.861252 1  331             Rx   d 8 03 3C F3 CF 3C F3 CF 00
 1.862505 1  56B             Rx   d 8 00 00 00 00 00 00 00 00
 1.863772 1  55D             Rx   d 8 00 00 00 00 00 00 FF 00
 1.864971 1  36E             Rx   d 8 00 00 00 C0 00 00 00 00
 1.869036 1  1E8             Rx   d 8 00 00 00 00 00 00 00 00
 1.870235 1  16A             Rx   d 8 03 0F F0 00 0F 00 FF 3C
 1.871483 1  56C             Rx   d 8 00 00 00 00 00 00 00 00
 1.872718 1  57A             Rx   d 8 00 00 C0 00 00 00 00 00
 1.873964 1  55B             Rx   d 8 00 00 00 00 00 00 00 00
 1.878999 1  59A             Rx   d 8 7F FF 00 00 00 00 00 00
 1.880179 1  10E             Rx   d 8 00 00 00 00 00 00 00 00
 1.881411 1  126             Rx   d 8 0F 00 80 00 00 00 FF FF
 1.882614 1  1AA             Rx   d 8 FF FF FF FF 33 00 00 00
 1.883839 1  15D             Rx   d 8 00 00 00 00 00 18 00 F0
 1.885061 1  195             Rx   d 8 00 00 00 01 E0 00 00 00
 1.886298 1  17F             Rx   d 8 FF FF CF FF FF 0F E0 00
 1.887517 1  3D5             Rx   d 8 FF 08 00 00 FC 00 00 00
 1.888895 1  364             Rx   d 8 00 00 00 00 00 00 00 00
 1.890105 1  135             Rx   d 8 0C 00 00 00 FF FF FF 00
 1.891364 1  56E             Rx   d 8 FF FF FF FF FF E0 00 00
 1.892556 1  169             Rx   d 8 0F 00 00 00 00 C0 03 E8
 1.893796 1  362             Rx   d 8 00 00 00 00 00 00 00 00
 1.895024 1  360             Rx   d 8 00 0F 00 0F 0F 0F 00 00
 1.896268 1  361             Rx   d 8 00 00 00 00 00 00 00 00
 1.897542 1  363             Rx   d 8 00 00 00 00 00 00 00 00
 1.898905 1  161             Rx   d 8 03 00 00 00 00 00 00 00
 1.900064 1  171             Rx   d 8 F0 E0 00 00 00 00 00 00
 1.901312 1  504             Rx   d 8 00 03 00 00 00 00 00 00
 1.902539 1  12A             Rx   d 8 00 00 00 00 00 00 E0 0C
 1.903778 1  158             Rx   d 8 00 00 00 00 F9 C0 03 FF
 1.904940 1  1B2             Rx   d 8 F0 F0 0F F3 C0 33 3C 00
 1.908995 1  2A4             Rx   d 8 FF FF FF FF FF FF FF 00
 1.910221 1  1D1             Rx   d 8 00 00 00 00 00 00 03 00
 1.911467 1  19E             Rx   d 8 00 00 00 00 00 00 00 00
 1.918983 1  1DF             Rx   d 8 FF FF 00 03 1F 80 F8 0C
 1.920172 1  1DA             Rx   d 8 00 00 00 30 00 00 00 00
 1.921420 1  164             Rx   d 8 00 00 00 00 00 00 00 00
 1.922658 1  1E5             Rx   d 8 00 0F FF FF FF 80 FF 00
 1.923845 1  173             Rx   d 8 C3 0F 6F 00 0C FF 7F 3C
 1.925086 1  1D0             Rx   d 8 00 00 00 00 00 00 00 00
 1.928897 1  1AB             Rx   d 8 FF FF FF FF FF 7E 03 00
 1.930127 1  1D2             Rx   d 8 FF FF FF FF 1F FF 00 00
 1.931364 1  166             Rx   d 8 00 00 00 00 00 00 00 00
 1.932632 1  57E             Rx   d 8 00 00 00 00 00 00 00 00
 1.933836 1  44D             Rx   d 8 55 12 00 00 00 00 FF FF
 1.939138 1  133             Rx   d 8 03 FF 00 00 00 00 00 FF
 1.940329 1  19D             Rx   d 8 3F 3F 3F 00 F3 00 00 00
 1.941576 1  3CA             Rx   d 8 FF FF FF FF FF FF 00 00
 1.949226 1  38F             Rx   d 8 FE 00 00 00 00 00 00 00
 1.950415 1  17D             Rx   d 8 80 20 08 00 00 00 00 00
 1.951644 1  1A3             Rx   d 8 FF 00 00 00 00 00 00 00
 1.952863 1  115             Rx   d 8 FF FF FF FF FF FF FF 0F
 1.954097 1  12B             Rx   d 8 00 00 00 00 00 00 00 00
 1.955327 1  1E7             Rx   d 8 FF FF FF FF FF FF FF 00
 1.956572 1  12C             Rx   d 8 00 00 00 00 00 00 00 00
 1.957840 1  123             Rx   d 8 FF FF FF C0 FF FF FF FF
 1.959054 1  122             Rx   d 8 7F C3 FF FF FF FF FF FF
 1.960346 1  196             Rx   d 8 00 FF 00 00 00 F8 00 00
 1.969375 1  3CC             Rx   d 8 F0 00 00 00 00 00 00 00
 1.970570 1  11E             Rx   d 8 FF FF FF 00 00 FF FF FF
 1.979218 1  59A             Rx   d 8 7F FF 00 00 00 00 00 00
 1.980424 1  15A             Rx   d 8 00 00 3F FE 00 00 00 00
 1.981662 1  165             Rx   d 8 00 00 00 00 00 00 00 00
 1.982904 1  1D5             Rx   d 8 C1 FF FF FF FF FF FF FF
 1.984137 1  137             Rx   d 8 FF 00 00 00 00 00 00 00
 1.985371 1  1EC             Rx   d 8 00 00 00 03 00 00 00 00
 1.986615 1  192             Rx   d 8 00 00 00 00 00 00 00 00
 1.987879 1  138             Rx   d 8 00 00 00 00 00 00 00 00
 1.989112 1  15B             Rx   d 8 3F FF FF FF FF FF F0 00
 1.990354 1  1EB             Rx   d 8 00 0C 00 00 00 00 00 00
 1.991621 1  15C             Rx   d 8 00 00 00 00 00 00 00 00
 1.992863 1  1D4             Rx   d 8 00 00 00 00 00 00 00 00
 1.994102 1  16D             Rx   d 8 00 00 00 00 00 00 00 00
 1.995352 1  152             Rx   d 8 00 00 00 00 00 00 00 00
 1.996605 1  16E             Rx   d 8 00 00 00 00 80 00 00 00
 1.997858 1  56D             Rx   d 8 00 00 00 00 00 00 00 00
 1.999113 1  12D             Rx   d 8 00 00 00 00 00 00 00 00
 2.000335 1  130             Rx   d 8 00 00 00 00 00 00 00 00
 2.009283 1  1A0             Rx   d 8 55 77 FF FF 00 00 77 00
 2.019092 1  17A             Rx   d 8 00 00 00 00 C0 00 00 00
 2.020314 1  17B             Rx   d 8 00 00 00 00 00 00 00 00
 2.029801 1  54E             Rx   d 8 00 00 00 00 00 00 00 00
 2.031036 1  558             Rx   d 8 FF FF FF FF FF FF FF F8
 2.032226 1  110             Rx   d 8 FC 3F 3C 00 C0 03 00 00
 2.036548 1  455             Rx   d 8 57 12 00 00 00 00 FF FF
 2.039249 1  57D             Rx   d 8 FF 3F FF 3F 00 00 06 00
 2.040483 1  54D             Rx   d 8 00 00 00 00 00 00 00 00
 2.041740 1  557             Rx   d 8 FF FF FF FF FF FF FF F0
 2.043027 1  15E             Rx   d 8 00 00 00 00 00 00 CC 03
 2.044199 1  55A             Rx   d 8 00 09 00 00 00 00 00 00
 2.049146 1  55E             Rx   d 8 00 03 00 3F C0 FF 00 00
 2.050356 1  55C             Rx   d 8 00 00 00 00 00 30 C0 00
 2.051567 1  1CB             Rx   d 8 FF C0 30 FC 00 00 00 00
 2.052814 1  54F             Rx   d 8 00 00 00 00 00 00 00 00
 2.054630 1  1B1             Rx   d 8 04 01 01 00 01 01 00 04
 2.059678 1  57B             Rx   d 8 00 00 00 00 00 00 00 00
 2.060941 1  56B             Rx   d 8 00 00 00 00 00 00 00 00
 2.062133 1  55D             Rx   d 8 00 00 00 00 00 00 FF 00
 2.063363 1  56A             Rx   d 8 00 00 00 00 00 00 00 00
 2.064665 1  36E             Rx   d 8 00 00 00 C0 00 00 00 00
 2.069151 1  55B             Rx   d 8 00 00 00 00 00 00 00 00
 2.070385 1  57A             Rx   d 8 00 00 C0 00 00 00 00 00
 2.071648 1  56C             Rx   d 8 00 00 00 00 00 00 00 00
 2.072832 1  16A             Rx   d 8 03 0F F0 00 0F 00 FF 3C
 2.074077 1  1E8             Rx   d 8 00 00 00 00 00 00 00 00
 2.079082 1  59A             Rx   d 8 7F FF 00 00 00 00 00 00
 2.080289 1  17F             Rx   d 8 FF FF CF FF FF 0F E0 00
 2.081498 1  195             Rx   d 8 00 00 00 01 E0 00 00 00
 2.082744 1  10E             Rx   d 8 00 00 00 00 00 00 00 00
 2.083968 1  15D             Rx   d 8 00 00 00 00 00 18 00 F0
 2.085165 1  1AA             Rx   d 8 FF FF FF FF 33 00 00 00
 2.086380 1  3D5             Rx   d 8 FF 08 00 00 FC 00 00 00
 2.088920 1  121             Rx   d 8 FF FF 0F 00 0F FF FF FF
 2.090122 1  135             Rx   d 8 0C 00 00 00 FF FF FF 00
 2.091371 1  56E             Rx   d 8 FF FF FF FF FF E0 00 00
 2.092574 1  169             Rx   d 8 0F 00 00 00 00 C0 03 E8
 2.098888 1  158             Rx   d 8 00 00 00 00 F9 C0 03 FF
 2.100106 1  12A             Rx   d 8 00 00 00 00 00 00 E0 0C
 2.101293 1  171             Rx   d 8 F0 E0 00 00 00 00 00 00
 2.102555 1  504             Rx   d 8 00 03 00 00 00 00 00 00
 2.103787 1  136             Rx   d 8 00 00 00 00 00 0F 00 00
 2.105012 1  161             Rx   d 8 03 00 00 00 00 00 00 00
 2.106177 1  1B2             Rx   d 8 F0 F0 0F F3 C0 33 3C 00
 2.108814 1  19E             Rx   d 8 00 00 00 00 00 00 00 00
 2.110030 1  1D1             Rx   d 8 00 00 00 00 00 00 03 00
 2.111279 1  2A4             Rx   d 8 FF FF FF FF FF FF FF 00
 2.118861 1  1D0             Rx   d 8 00 00 00 00 00 00 00 00
 2.120020 1  173             Rx   d 8 C3 0F 6F 00 0C FF 7F 3C
 2.121219 1  1DF             Rx   d 8 FF FF 00 03 1F 80 F8 0C
 2.122463 1  1E5             Rx   d 8 00 0F FF FF FF 80 FF 00
 2.123722 1  164             Rx   d 8 00 00 00 00 00 00 00 00
 2.124981 1  1DA             Rx   d 8 00 00 00 30 00 00 00 00
 2.129071 1  57E             Rx   d 8 00 00 00 00 00 00 00 00
 2.130297 1  166             Rx   d 8 00 00 00 00 00 00 00 00
 2.131558 1  119             Rx   d 8 03 30 00 00 00 00 00 00
 2.132757 1  1D2             Rx   d 8 FF FF FF FF 1F FF 00 00
 2.133986 1  1AB             Rx   d 8 FF FF FF FF FF 7E 03 00
 2.135203 1  457             Rx   d 8 40 02 00 00 00 00 FF FF
 2.138866 1  3CA             Rx   d 8 FF FF FF FF FF FF 00 00
 2.140004 1  19D             Rx   d 8 3F 3F 3F 00 F3 00 00 00
 2.141265 1  133             Rx   d 8 03 FF 00 00 00 00 00 FF
 2.148796 1  123             Rx   d 8 FF FF FF C0 FF FF FF FF
 2.150052 1  12C             Rx   d 8 00 00 00 00 00 00 00 00
 2.151260 1  1E7             Rx   d 8 FF FF FF FF FF FF FF 00
 2.152492 1  38F             Rx   d 8 FE 00 00 00 00 00 00 00
 2.153733 1  12B             Rx   d 8 00 00 00 00 00 00 00 00
 2.155012 1  115             Rx   d 8 FF FF FF FF FF FF FF 0F
 2.156220 1  1A3             Rx   d 8 FF 00 00 00 00 00 00 00
 2.157411 1  17D             Rx   d 8 80 20 08 00 00 00 00 00
 2.158800 1  196             Rx   d 8 00 FF 00 00 00 F8 00 00
 2.160020 1  122             Rx   d 8 7F C3 FF FF FF FF FF FF
 2.169111 1  11E             Rx   d 8 FF FF FF 00 00 FF FF FF
 2.170365 1  3CC             Rx   d 8 F0 00 00 00 00 00 00 00
 2.178842 1  59A             Rx   d 8 7F FF 00 00 00 00 00 00
 2.180049 1  16E             Rx   d 8 00 00 00 00 80 00 00 00
 2.181272 1  56D             Rx   d 8 00 00 00 00 00 00 00 00
 2.182518 1  560             Rx   d 8 FF 1F 00 00 00 00 00 00
 2.183807 1  152             Rx   d 8 00 00 00 00 00 00 00 00
 2.184983 1  509             Rx   d 8 00 3F FF FF FF FF CF 00
 2.186224 1  516             Rx   d 8 00 00 00 00 00 00 00 00
 2.187469 1  16D             Rx   d 8 00 00 00 00 00 00 00 00
 2.188712 1  1D5             Rx   d 8 C1 FF FF FF FF FF FF FF
 2.189973 1  137             Rx   d 8 FF 00 00 00 00 00 00 00
 2.191209 1  165             Rx   d 8 00 00 00 00 00 00 00 00
 2.192413 1  15A             Rx   d 8 00 00 3F FE 00 00 00 00
 2.193668 1  1D4             Rx   d 8 00 00 00 00 00 00 00 00
 2.194920 1  138             Rx   d 8 00 00 00 00 00 00 00 00
 2.196151 1  517             Rx   d 8 00 00 00 00 00 00 00 00
 2.197408 1  192             Rx   d 8 00 00 00 00 00 00 00 00
 2.198645 1  1EC             Rx   d 8 00 00 00 03 00 00 00 00
 2.200059 1  15C             Rx   d 8 00 00 00 00 00 00 00 00
 2.201219 1  515             Rx   d 8 00 00 00 00 00 00 00 00
 2.202428 1  1EB             Rx   d 8 00 0C 00 00 00 00 00 00
 2.203671 1  15B             Rx   d 8 3F FF FF FF FF FF F0 00
 2.204923 1  12D             Rx   d 8 00 00 00 00 00 00 00 00
 2.206153 1  19F             Rx   d 8 03 FF 03 FF 00 00 0C 00
 2.207435 1  130             Rx   d 8 00 00 00 00 00 00 00 00
 2.208707 1  174             Rx   d 8 FF 0F 38 FF C0 03 00 00
 2.209906 1  51C             Rx   d 8 07 FF FF FF FF FF FF FF
 2.211164 1  1A0             Rx   d 8 55 77 FF FF 00 00 77 00
 2.219309 1  17B             Rx   d 8 00 00 00 00 00 00 00 00
 2.220600 1  17A             Rx   d 8 00 00 00 00 C0 00 00 00
 2.221687 1  716             Tx   d 8 02 10 03 00 00 00 00 00
 2.229365 1  558             Rx   d 8 FF FF FF FF FF FF FF F8
 2.230661 1  110             Rx   d 8 FC 3F 3C 00 C0 03 00 00
 2.231865 1  54E             Rx   d 8 00 00 00 00 00 00 00 00
 2.237009 1  440             Rx   d 8 4D 12 00 00 00 00 FF FF
 2.239033 1  15E             Rx   d 8 00 00 00 00 00 00 CC 03
 2.240214 1  57D             Rx   d 8 FF 3F FF 3F 00 00 06 00
 2.241518 1  55A             Rx   d 8 00 09 00 00 00 00 00 00
 2.242745 1  54D             Rx   d 8 00 00 00 00 00 00 00 00
 2.244058 1  557             Rx   d 8 FF FF FF FF FF FF FF F0
 2.245155 1  71E             Rx   d 8 06 50 03 00 32 01 F4 AA
 2.249398 1  54F             Rx   d 8 00 00 00 00 00 00 00 00
 2.250558 1  1CB             Rx   d 8 FF C0 30 FC 00 00 00 00
 2.251794 1  55C             Rx   d 8 00 00 00 00 00 30 C0 00
 2.253016 1  55E             Rx   d 8 00 03 00 3F C0 FF 00 00
 2.254777 1  1B1             Rx   d 8 04 01 01 00 01 01 00 04
 2.259496 1  56A             Rx   d 8 00 00 00 00 00 00 00 00
 2.260662 1  56B             Rx   d 8 00 00 00 00 00 00 00 00
 2.261857 1  55D             Rx   d 8 00 00 00 00 00 00 FF 00
 2.263185 1  57B             Rx   d 8 00 00 00 00 00 00 00 00
 2.264716 1  36E             Rx   d 8 00 00 00 C0 00 00 00 00
 2.269181 1  16A             Rx   d 8 03 0F F0 00 0F 00 FF 3C
 2.270301 1  1E8             Rx   d 8 00 00 00 00 00 00 00 00
 2.271549 1  56C             Rx   d 8 00 00 00 00 00 00 00 00
 2.272778 1  57A             Rx   d 8 00 00 C0 00 00 00 00 00
 2.274001 1  55B             Rx   d 8 00 00 00 00 00 00 00 00
 2.279502 1  59A             Rx   d 8 7F FF 00 00 00 00 00 00
 2.280603 1  15D             Rx   d 8 00 00 00 00 00 18 00 F0
 2.281844 1  1AA             Rx   d 8 FF FF FF FF 33 00 00 00
 2.283103 1  17F             Rx   d 8 FF FF CF FF FF 0F E0 00
 2.284333 1  10E             Rx   d 8 00 00 00 00 00 00 00 00
 2.285517 1  195             Rx   d 8 00 00 00 01 E0 00 00 00
 2.286845 1  3D5             Rx   d 8 FF 08 00 00 FC 00 00 00
 2.289146 1  56E             Rx   d 8 FF FF FF FF FF E0 00 00
 2.290296 1  169             Rx   d 8 0F 00 00 00 00 C0 03 E8
 2.291446 1  135             Rx   d 8 0C 00 00 00 FF FF FF 00
 2.299319 1  161             Rx   d 8 03 00 00 00 00 00 00 00
 2.300595 1  504             Rx   d 8 00 03 00 00 00 00 00 00
 2.301767 1  171             Rx   d 8 F0 E0 00 00 00 00 00 00
 2.303029 1  12A             Rx   d 8 00 00 00 00 00 00 E0 0C
 2.304164 1  158             Rx   d 8 00 00 00 00 F9 C0 03 FF
 2.305370 1  1B2             Rx   d 8 F0 F0 0F F3 C0 33 3C 00
 2.309173 1  2A4             Rx   d 8 FF FF FF FF FF FF FF 00
 2.310401 1  1D1             Rx   d 8 00 00 00 00 00 00 03 00
 2.311625 1  19E             Rx   d 8 00 00 00 00 00 00 00 00
 2.319186 1  164             Rx   d 8 00 00 00 00 00 00 00 00
 2.320359 1  1DA             Rx   d 8 00 00 00 30 00 00 00 00
 2.321599 1  1D0             Rx   d 8 00 00 00 00 00 00 00 00
 2.322891 1  1E5             Rx   d 8 00 0F FF FF FF 80 FF 00
 2.324063 1  1DF             Rx   d 8 FF FF 00 03 1F 80 F8 0C
 2.325217 1  173             Rx   d 8 C3 0F 6F 00 0C FF 7F 3C
 2.329143 1  166             Rx   d 8 00 00 00 00 00 00 00 00
 2.330319 1  1AB             Rx   d 8 FF FF FF FF FF 7E 03 00
 2.331586 1  57E             Rx   d 8 00 00 00 00 00 00 00 00
 2.332838 1  1D2             Rx   d 8 FF FF FF FF 1F FF 00 00
 2.334059 1  1CE             Rx   d 8 00 00 00 00 00 00 00 00
 2.339098 1  44D             Rx   d 8 55 12 00 00 00 00 FF FF
 2.340368 1  1C1             Rx   d 8 FF FF FF FF FF FF FF FF
 2.341588 1  133             Rx   d 8 03 FF 00 00 00 00 00 FF
 2.342785 1  19D             Rx   d 8 3F 3F 3F 00 F3 00 00 00
 2.344018 1  3CA             Rx   d 8 FF FF FF FF FF FF 00 00
 2.348860 1  1A3             Rx   d 8 FF 00 00 00 00 00 00 00
 2.350057 1  17D             Rx   d 8 80 20 08 00 00 00 00 00
 2.351306 1  115             Rx   d 8 FF FF FF FF FF FF FF 0F
 2.352516 1  123             Rx   d 8 FF FF FF C0 FF FF FF FF
 2.353779 1  12B             Rx   d 8 00 00 00 00 00 00 00 00
 2.355068 1  38F             Rx   d 8 FE 00 00 00 00 00 00 00
 2.356272 1  1E7             Rx   d 8 FF FF FF FF FF FF FF 00
 2.357548 1  12C             Rx   d 8 00 00 00 00 00 00 00 00
 2.358978 1  122             Rx   d 8 7F C3 FF FF FF FF FF FF
 2.360135 1  196             Rx   d 8 00 FF 00 00 00 F8 00 00
 2.368981 1  11E             Rx   d 8 FF FF FF 00 00 FF FF FF
 2.370232 1  1BC             Rx   d 8 FF FF FF FF FF 00 00 00
 2.371483 1  3CC             Rx   d 8 F0 00 00 00 00 00 00 00
 2.378995 1  59A             Rx   d 8 7F FF 00 00 00 00 00 00
 2.380245 1  16E             Rx   d 8 00 00 00 00 80 00 00 00
 2.381472 1  15B             Rx   d 8 3F FF FF FF FF FF F0 00
 2.382703 1  1EB             Rx   d 8 00 0C 00 00 00 00 00 00
 2.383964 1  5D8             Rx   d 8 00 00 00 00 00 00 00 00
 2.385193 1  56D             Rx   d 8 00 00 00 00 00 00 00 00
 2.386459 1  15C             Rx   d 8 00 00 00 00 00 00 00 00
 2.387699 1  16D             Rx   d 8 00 00 00 00 00 00 00 00
 2.388948 1  152             Rx   d 8 00 00 00 00 00 00 00 00
 2.390182 1  1EC             Rx   d 8 00 00 00 03 00 00 00 00
 2.391486 1  1D4             Rx   d 8 00 00 00 00 00 00 00 00
 2.392668 1  137             Rx   d 8 FF 00 00 00 00 00 00 00
 2.393911 1  1D5             Rx   d 8 C1 FF FF FF FF FF FF FF
 2.395163 1  15A             Rx   d 8 00 00 3F FE 00 00 00 00
 2.396400 1  165             Rx   d 8 00 00 00 00 00 00 00 00
 2.397647 1  192             Rx   d 8 00 00 00 00 00 00 00 00
 2.398913 1  138             Rx   d 8 00 00 00 00 00 00 00 00
 2.400134 1  571             Rx   d 8 7F 00 00 00 00 00 00 00
 2.401374 1  1BB             Rx   d 8 FF FF FF FF 00 00 00 00
 2.402596 1  12D             Rx   d 8 00 00 00 00 00 00 00 00
 2.403846 1  130             Rx   d 8 00 00 00 00 00 00 00 00
 2.405070 1  1C0             Rx   d 8 FF 0F 03 00 0F 00 00 00
 2.408860 1  1A0             Rx   d 8 55 77 FF FF 00 00 77 00
 2.418860 1  17B             Rx   d 8 00 00 00 00 00 00 00 00
 2.420082 1  17A             Rx   d 8 00 00 00 00 C0 00 00 00
 2.428921 1  54E             Rx   d 8 00 00 00 00 00 00 00 00
 2.430115 1  110             Rx   d 8 FC 3F 3C 00 C0 03 00 00
 2.431349 1  558             Rx   d 8 FF FF FF FF FF FF FF F8
 2.432593 1  18A             Rx   d 8 00 00 00 00 00 00 00 00
 2.438978 1  54D             Rx   d 8 00 00 00 00 00 00 00 00
 2.440122 1  15E             Rx   d 8 00 00 00 00 00 00 CC 03
 2.441377 1  557             Rx   d 8 FF FF FF FF FF FF FF F0
 2.442597 1  55A             Rx   d 8 00 09 00 00 00 00 00 00
 2.443822 1  57D             Rx   d 8 FF 3F FF 3F 00 00 06 00
 2.445023 1  455             Rx   d 8 57 12 00 00 00 00 FF FF
 2.448840 1  55E             Rx   d 8 00 03 00 3F C0 FF 00 00
 2.450076 1  55C             Rx   d 8 00 00 00 00 00 30 C0 00
 2.451339 1  18B             Rx   d 8 00 00 00 00 00 00 00 00
 2.452598 1  54F             Rx   d 8 00 00 00 00 00 00 00 00
 2.453794 1  1CB             Rx   d 8 FF C0 30 FC 00 00 00 00
 2.455030 1  1B1             Rx   d 8 04 01 01 00 01 01 00 04
 2.458799 1  57B             Rx   d 8 00 00 00 00 00 00 00 00
 2.460076 1  55D             Rx   d 8 00 00 00 00 00 00 FF 00
 2.461285 1  56B             Rx   d 8 00 00 00 00 00 00 00 00
 2.462524 1  56A             Rx   d 8 00 00 00 00 00 00 00 00
 2.463660 1  331             Rx   d 8 03 3C F3 CF 3C F3 CF 00
 2.464869 1  36E             Rx   d 8 00 00 00 C0 00 00 00 00
 2.468915 1  57A             Rx   d 8 00 00 C0 00 00 00 00 00
 2.470152 1  55B             Rx   d 8 00 00 00 00 00 00 00 00
 2.471424 1  56C             Rx   d 8 00 00 00 00 00 00 00 00
 2.472666 1  1E8             Rx   d 8 00 00 00 00 00 00 00 00
 2.473849 1  16A             Rx   d 8 03 0F F0 00 0F 00 FF 3C
 2.479143 1  195             Rx   d 8 00 00 00 01 E0 00 00 00
 2.480365 1  10E             Rx   d 8 00 00 00 00 00 00 00 00
 2.481599 1  59A             Rx   d 8 7F FF 00 00 00 00 00 00
 2.482883 1  5DA             Rx   d 8 7F FF FC 00 00 00 00 00
 2.484075 1  17F             Rx   d 8 FF FF CF FF FF 0F E0 00
 2.485289 1  3D5             Rx   d 8 FF 08 00 00 FC 00 00 00
 2.486520 1  5DB             Rx   d 8 7F FF FC 00 00 1F FF FF
 2.487742 1  15D             Rx   d 8 00 00 00 00 00 18 00 F0
 2.488979 1  5DC             Rx   d 8 00 00 00 00 0F FF FF FF
 2.490193 1  1AA             Rx   d 8 FF FF FF FF 33 00 00 00
 2.491440 1  126             Rx   d 8 0F 00 80 00 00 00 FF FF
 2.492684 1  364             Rx   d 8 00 00 00 00 00 00 00 00
 2.493886 1  169             Rx   d 8 0F 00 00 00 00 C0 03 E8
 2.495114 1  135             Rx   d 8 0C 00 00 00 FF FF FF 00
 2.496371 1  361             Rx   d 8 00 00 00 00 00 00 00 00
 2.497615 1  363             Rx   d 8 00 00 00 00 00 00 00 00
 2.498864 1  362             Rx   d 8 00 00 00 00 00 00 00 00
 2.500098 1  56E             Rx   d 8 FF FF FF FF FF E0 00 00
 2.501308 1  360             Rx   d 8 00 0F 00 0F 0F 0F 00 00
 2.502556 1  158             Rx   d 8 00 00 00 00 F9 C0 03 FF
 2.503773 1  12A             Rx   d 8 00 00 00 00 00 00 E0 0C
 2.504998 1  171             Rx   d 8 F0 E0 00 00 00 00 00 00
 2.506152 1  1B2             Rx   d 8 F0 F0 0F F3 C0 33 3C 00
 2.507410 1  504             Rx   d 8 00 03 00 00 00 00 00 00
 2.508658 1  161             Rx   d 8 03 00 00 00 00 00 00 00
 2.509911 1  19E             Rx   d 8 00 00 00 00 00 00 00 00
 2.511113 1  1D1             Rx   d 8 00 00 00 00 00 00 03 00
 2.512363 1  2A4             Rx   d 8 FF FF FF FF FF FF FF 00
 2.519037 1  164             Rx   d 8 00 00 00 00 00 00 00 00
 2.520201 1  173             Rx   d 8 C3 0F 6F 00 0C FF 7F 3C
 2.521408 1  1DF             Rx   d 8 FF FF 00 03 1F 80 F8 0C
 2.522654 1  1E5             Rx   d 8 00 0F FF FF FF 80 FF 00
 2.523892 1  1DA             Rx   d 8 00 00 00 30 00 00 00 00
 2.525157 1  1D0             Rx   d 8 00 00 00 00 00 00 00 00
 2.529189 1  1D2             Rx   d 8 FF FF FF FF 1F FF 00 00
 2.530418 1  166             Rx   d 8 00 00 00 00 00 00 00 00
 2.531652 1  1AB             Rx   d 8 FF FF FF FF FF 7E 03 00
 2.532879 1  531             Rx   d 8 FF 00 FF 00 00 00 00 00
 2.534137 1  57E             Rx   d 8 00 00 00 00 00 00 00 00
 2.539248 1  3CA             Rx   d 8 FF FF FF FF FF FF 00 00
 2.540497 1  133             Rx   d 8 03 FF 00 00 00 00 00 FF
 2.541705 1  19D             Rx   d 8 3F 3F 3F 00 F3 00 00 00
 2.544638 1  457             Rx   d 8 40 02 00 00 00 00 FF FF
 2.549246 1  12C             Rx   d 8 00 00 00 00 00 00 00 00
 2.550475 1  1E7             Rx   d 8 FF FF FF FF FF FF FF 00
 2.551715 1  38F             Rx   d 8 FE 00 00 00 00 00 00 00
 2.552966 1  12B             Rx   d 8 00 00 00 00 00 00 00 00
 2.554181 1  1A3             Rx   d 8 FF 00 00 00 00 00 00 00
 2.555439 1  123             Rx   d 8 FF FF FF C0 FF FF FF FF
 2.556648 1  115             Rx   d 8 FF FF FF FF FF FF FF 0F
 2.557876 1  17D             Rx   d 8 80 20 08 00 00 00 00 00
 2.559336 1  122             Rx   d 8 7F C3 FF FF FF FF FF FF
 2.560558 1  196             Rx   d 8 00 FF 00 00 00 F8 00 00
 2.569187 1  3CC             Rx   d 8 F0 00 00 00 00 00 00 00
 2.570423 1  11E             Rx   d 8 FF FF FF 00 00 FF FF FF
 2.579373 1  59A             Rx   d 8 7F FF 00 00 00 00 00 00
 2.580601 1  138             Rx   d 8 00 00 00 00 00 00 00 00
 2.581844 1  16E             Rx   d 8 00 00 00 00 80 00 00 00
 2.583113 1  192             Rx   d 8 00 00 00 00 00 00 00 00
 2.584346 1  15B             Rx   d 8 3F FF FF FF FF FF F0 00
 2.585592 1  165             Rx   d 8 00 00 00 00 00 00 00 00
 2.586860 1  1EB             Rx   d 8 00 0C 00 00 00 00 00 00
 2.588064 1  15A             Rx   d 8 00 00 3F FE 00 00 00 00
 2.589304 1  1EC             Rx   d 8 00 00 00 03 00 00 00 00
 2.590564 1  15C             Rx   d 8 00 00 00 00 00 00 00 00
 2.591824 1  56D             Rx   d 8 00 00 00 00 00 00 00 00
 2.593054 1  152             Rx   d 8 00 00 00 00 00 00 00 00
 2.594296 1  56F             Rx   d 8 00 00 00 00 00 00 00 00
 2.595536 1  16D             Rx   d 8 00 00 00 00 00 00 00 00
 2.596771 1  1D5             Rx   d 8 C1 FF FF FF FF FF FF FF
 2.598002 1  137             Rx   d 8 FF 00 00 00 00 00 00 00
 2.599253 1  1D4             Rx   d 8 00 00 00 00 00 00 00 00
 2.600505 1  130             Rx   d 8 00 00 00 00 00 00 00 00
 2.601739 1  12D             Rx   d 8 00 00 00 00 00 00 00 00
 2.603003 1  570             Rx   d 8 00 00 00 00 00 00 00 00
 2.609012 1  1A0             Rx   d 8 55 77 FF FF 00 00 77 00
 2.618882 1  17B             Rx   d 8 00 00 00 00 00 00 00 00
 2.620097 1  17A             Rx   d 8 00 00 00 00 C0 00 00 00
 2.628844 1  558             Rx   d 8 FF FF FF FF FF FF FF F8
 2.630037 1  110             Rx   d 8 FC 3F 3C 00 C0 03 00 00
 2.631284 1  54E             Rx   d 8 00 00 00 00 00 00 00 00
 2.632535 1  134             Rx   d 8 00 00 00 00 00 00 00 FF
 2.638863 1  55A             Rx   d 8 00 09 00 00 00 00 00 00
 2.640039 1  57D             Rx   d 8 FF 3F FF 3F 00 00 06 00
 2.641289 1  54D             Rx   d 8 00 00 00 00 00 00 00 00
 2.642501 1  15E             Rx   d 8 00 00 00 00 00 00 CC 03
 2.643749 1  557             Rx   d 8 FF FF FF FF FF FF FF F0
 2.646698 1  440             Rx   d 8 4D 12 00 00 00 00 FF FF
 2.648803 1  132             Rx   d 8 FF FF 33 70 3C 00 00 0F
 2.650016 1  1CB             Rx   d 8 FF C0 30 FC 00 00 00 00
 2.651291 1  54F             Rx   d 8 00 00 00 00 00 00 00 00
 2.652508 1  55E             Rx   d 8 00 03 00 3F C0 FF 00 00
 2.653729 1  55C             Rx   d 8 00 00 00 00 00 30 C0 00
 2.654973 1  1B1             Rx   d 8 04 01 01 00 01 01 00 04
 2.658869 1  56A             Rx   d 8 00 00 00 00 00 00 00 00
 2.660068 1  131             Rx   d 8 FF 00 FF 00 00 00 00 00
 2.661298 1  55D             Rx   d 8 00 00 00 00 00 00 FF 00
 2.662549 1  57B             Rx   d 8 00 00 00 00 00 00 00 00
 2.663793 1  56B             Rx   d 8 00 00 00 00 00 00 00 00
 2.665018 1  36E             Rx   d 8 00 00 00 C0 00 00 00 00
 2.668905 1  1E8             Rx   d 8 00 00 00 00 00 00 00 00
 2.670070 1  16A             Rx   d 8 03 0F F0 00 0F 00 FF 3C
 2.671324 1  56C             Rx   d 8 00 00 00 00 00 00 00 00
 2.672567 1  55B             Rx   d 8 00 00 00 00 00 00 00 00
 2.673793 1  57A             Rx   d 8 00 00 C0 00 00 00 00 00
 2.679147 1  59A             Rx   d 8 7F FF 00 00 00 00 00 00
 2.680337 1  195             Rx   d 8 00 00 00 01 E0 00 00 00
 2.681549 1  1AA             Rx   d 8 FF FF FF FF 33 00 00 00
 2.682778 1  17F             Rx   d 8 FF FF CF FF FF 0F E0 00
 2.684073 1  10E             Rx   d 8 00 00 00 00 00 00 00 00
 2.685248 1  15D             Rx   d 8 00 00 00 00 00 18 00 F0
 2.686463 1  3D5             Rx   d 8 FF 08 00 00 FC 00 00 00
 2.689076 1  56E             Rx   d 8 FF FF FF FF FF E0 00 00
 2.690305 1  167             Rx   d 8 FF C0 00 F0 70 00 00 00
 2.691538 1  135             Rx   d 8 0C 00 00 00 FF FF FF 00
 2.692738 1  169             Rx   d 8 0F 00 00 00 00 C0 03 E8
 2.693942 1  121             Rx   d 8 FF FF 0F 00 0F FF FF FF
 2.699084 1  136             Rx   d 8 00 00 00 00 00 0F 00 00
 2.700343 1  504             Rx   d 8 00 03 00 00 00 00 00 00
 2.701566 1  161             Rx   d 8 03 00 00 00 00 00 00 00
 2.702852 1  158             Rx   d 8 00 00 00 00 F9 C0 03 FF
 2.704026 1  12A             Rx   d 8 00 00 00 00 00 00 E0 0C
 2.705231 1  171             Rx   d 8 F0 E0 00 00 00 00 00 00
 2.706416 1  1B2             Rx   d 8 F0 F0 0F F3 C0 33 3C 00
 2.708740 1  2A4             Rx   d 8 FF FF FF FF FF FF FF 00
 2.709972 1  19E             Rx   d 8 00 00 00 00 00 00 00 00
 2.711210 1  1D1             Rx   d 8 00 00 00 00 00 00 03 00
 2.718959 1  1DA             Rx   d 8 00 00 00 30 00 00 00 00
 2.720169 1  1D0             Rx   d 8 00 00 00 00 00 00 00 00
 2.721416 1  164             Rx   d 8 00 00 00 00 00 00 00 00
 2.722653 1  1E5             Rx   d 8 00 0F FF FF FF 80 FF 00
 2.723884 1  1DF             Rx   d 8 FF FF 00 03 1F 80 F8 0C
 2.725038 1  173             Rx   d 8 C3 0F 6F 00 0C FF 7F 3C
 2.729136 1  12F             Rx   d 8 FF FF FF FF 3F FF FF CF
 2.730371 1  166             Rx   d 8 00 00 00 00 00 00 00 00
 2.731604 1  1D2             Rx   d 8 FF FF FF FF 1F FF 00 00
 2.732864 1  57E             Rx   d 8 00 00 00 00 00 00 00 00
 2.734093 1  1AB             Rx   d 8 FF FF FF FF FF 7E 03 00
 2.735324 1  119             Rx   d 8 03 30 00 00 00 00 00 00
 2.738952 1  133             Rx   d 8 03 FF 00 00 00 00 00 FF
 2.740116 1  19D             Rx   d 8 3F 3F 3F 00 F3 00 00 00
 2.741363 1  197             Rx   d 8 FF FF 33 FF FF F0 00 00
 2.742574 1  3CA             Rx   d 8 FF FF FF FF FF FF 00 00
 2.748817 1  44D             Rx   d 8 55 12 00 00 00 00 FF FF
 2.750047 1  115             Rx   d 8 FF FF FF FF FF FF FF 0F
 2.751298 1  12C             Rx   d 8 00 00 00 00 00 00 00 00
 2.752528 1  123             Rx   d 8 FF FF FF C0 FF FF FF FF
 2.753766 1  1A3             Rx   d 8 FF 00 00 00 00 00 00 00
 2.754986 1  17D             Rx   d 8 80 20 08 00 00 00 00 00
 2.756217 1  12B             Rx   d 8 00 00 00 00 00 00 00 00
 2.757484 1  38F             Rx   d 8 FE 00 00 00 00 00 00 00
 2.758689 1  1E7             Rx   d 8 FF FF FF FF FF FF FF 00
 2.759919 1  196             Rx   d 8 00 FF 00 00 00 F8 00 00
 2.761147 1  122             Rx   d 8 7F C3 FF FF FF FF FF FF
 2.768907 1  11E             Rx   d 8 FF FF FF 00 00 FF FF FF
 2.770143 1  3CC             Rx   d 8 F0 00 00 00 00 00 00 00
 2.778718 1  59A             Rx   d 8 7F FF 00 00 00 00 00 00
 2.779953 1  1D4             Rx   d 8 00 00 00 00 00 00 00 00
 2.781175 1  137             Rx   d 8 FF 00 00 00 00 00 00 00
 2.782417 1  1D5             Rx   d 8 C1 FF FF FF FF FF FF FF
 2.783669 1  138             Rx   d 8 00 00 00 00 00 00 00 00
 2.784907 1  16D             Rx   d 8 00 00 00 00 00 00 00 00
 2.786162 1  16E             Rx   d 8 00 00 00 00 80 00 00 00
 2.787397 1  1EC             Rx   d 8 00 00 00 03 00 00 00 00
 2.788639 1  15B             Rx   d 8 3F FF FF FF FF FF F0 00
 2.789889 1  192             Rx   d 8 00 00 00 00 00 00 00 00
 2.791130 1  15A             Rx   d 8 00 00 3F FE 00 00 00 00
 2.792368 1  165             Rx   d 8 00 00 00 00 00 00 00 00
 2.793608 1  1EB             Rx   d 8 00 0C 00 00 00 00 00 00
 2.794869 1  152             Rx   d 8 00 00 00 00 00 00 00 00
 2.796094 1  56D             Rx   d 8 00 00 00 00 00 00 00 00
 2.797365 1  15C             Rx   d 8 00 00 00 00 00 00 00 00
 2.798597 1  12D             Rx   d 8 00 00 00 00 00 00 00 00
 2.799854 1  130             Rx   d 8 00 00 00 00 00 00 00 00
 2.801083 1  100             Rx   d 8 FF 00 00 FF 80 00 00 FF
 2.808929 1  1A0             Rx   d 8 55 77 FF FF 00 00 77 00
 2.818778 1  17B             Rx   d 8 00 00 00 00 00 00 00 00
 2.820018 1  17A             Rx   d 8 00 00 00 00 C0 00 00 00
 2.828927 1  54E             Rx   d 8 00 00 00 00 00 00 00 00
 2.830153 1  558             Rx   d 8 FF FF FF FF FF FF FF F8
 2.831372 1  110             Rx   d 8 FC 3F 3C 00 C0 03 00 00
 2.839031 1  557             Rx   d 8 FF FF FF FF FF FF FF F0
 2.840262 1  15E             Rx   d 8 00 00 00 00 00 00 CC 03
 2.841512 1  55A             Rx   d 8 00 09 00 00 00 00 00 00
 2.842739 1  54D             Rx   d 8 00 00 00 00 00 00 00 00
 2.843973 1  57D             Rx   d 8 FF 3F FF 3F 00 00 06 00
 2.849005 1  55E             Rx   d 8 00 03 00 3F C0 FF 00 00
 2.850240 1  55C             Rx   d 8 00 00 00 00 00 30 C0 00
 2.851448 1  1CB             Rx   d 8 FF C0 30 FC 00 00 00 00
 2.852699 1  54F             Rx   d 8 00 00 00 00 00 00 00 00
 2.853902 1  455             Rx   d 8 57 12 00 00 00 00 FF FF
 2.855098 1  1B1             Rx   d 8 04 01 01 00 01 01 00 04
 2.858758 1  56B             Rx   d 8 00 00 00 00 00 00 00 00
 2.859982 1  57B             Rx   d 8 00 00 00 00 00 00 00 00
 2.861220 1  56A             Rx   d 8 00 00 00 00 00 00 00 00
 2.862451 1  55D             Rx   d 8 00 00 00 00 00 00 FF 00
 2.864629 1  36E             Rx   d 8 00 00 00 C0 00 00 00 00
 2.868820 1  55B             Rx   d 8 00 00 00 00 00 00 00 00
 2.870070 1  1E8             Rx   d 8 00 00 00 00 00 00 00 00
 2.871307 1  57A             Rx   d 8 00 00 C0 00 00 00 00 00
 2.872565 1  56C             Rx   d 8 00 00 00 00 00 00 00 00
 2.873750 1  16A             Rx   d 8 03 0F F0 00 0F 00 FF 3C
 2.879078 1  15D             Rx   d 8 00 00 00 00 00 18 00 F0
 2.880306 1  10E             Rx   d 8 00 00 00 00 00 00 00 00
 2.881543 1  59A             Rx   d 8 7F FF 00 00 00 00 00 00
 2.882757 1  195             Rx   d 8 00 00 00 01 E0 00 00 00
 2.883994 1  17F             Rx   d 8 FF FF CF FF FF 0F E0 00
 2.885200 1  1AA             Rx   d 8 FF FF FF FF 33 00 00 00
 2.886419 1  3D5             Rx   d 8 FF 08 00 00 FC 00 00 00
 2.889247 1  169             Rx   d 8 0F 00 00 00 00 C0 03 E8
 2.890482 1  56E             Rx   d 8 FF FF FF FF FF E0 00 00
 2.891713 1  135             Rx   d 8 0C 00 00 00 FF FF FF 00
 2.899256 1  171             Rx   d 8 F0 E0 00 00 00 00 00 00
 2.900509 1  504             Rx   d 8 00 03 00 00 00 00 00 00
 2.901734 1  12A             Rx   d 8 00 00 00 00 00 00 E0 0C
 2.902981 1  158             Rx   d 8 00 00 00 00 F9 C0 03 FF
 2.904203 1  161             Rx   d 8 03 00 00 00 00 00 00 00
 2.905365 1  1B2             Rx   d 8 F0 F0 0F F3 C0 33 3C 00
 2.909383 1  19E             Rx   d 8 00 00 00 00 00 00 00 00
 2.910599 1  1D1             Rx   d 8 00 00 00 00 00 00 03 00
 2.911847 1  2A4             Rx   d 8 FF FF FF FF FF FF FF 00
 2.919172 1  1DF             Rx   d 8 FF FF 00 03 1F 80 F8 0C
 2.920357 1  173             Rx   d 8 C3 0F 6F 00 0C FF 7F 3C
 2.921580 1  1DA             Rx   d 8 00 00 00 30 00 00 00 00
 2.922867 1  1E5             Rx   d 8 00 0F FF FF FF 80 FF 00
 2.924084 1  1D0             Rx   d 8 00 00 00 00 00 00 00 00
 2.925347 1  164             Rx   d 8 00 00 00 00 00 00 00 00
 2.929465 1  1D2             Rx   d 8 FF FF FF FF 1F FF 00 00
 2.930699 1  166             Rx   d 8 00 00 00 00 00 00 00 00
 2.931931 1  1AB             Rx   d 8 FF FF FF FF FF 7E 03 00
 2.933191 1  57E             Rx   d 8 00 00 00 00 00 00 00 00
 2.939549 1  3CA             Rx   d 8 FF FF FF FF FF FF 00 00
 2.940758 1  19D             Rx   d 8 3F 3F 3F 00 F3 00 00 00
 2.942021 1  133             Rx   d 8 03 FF 00 00 00 00 00 FF
 2.949072 1  1E7             Rx   d 8 FF FF FF FF FF FF FF 00
 2.950309 1  38F             Rx   d 8 FE 00 00 00 00 00 00 00
 2.951552 1  12B             Rx   d 8 00 00 00 00 00 00 00 00
 2.952772 1  17D             Rx   d 8 80 20 08 00 00 00 00 00
 2.953997 1  115             Rx   d 8 FF FF FF FF FF FF FF 0F
 2.955224 1  1A3             Rx   d 8 FF 00 00 00 00 00 00 00
 2.956462 1  123             Rx   d 8 FF FF FF C0 FF FF FF FF
 2.957726 1  12C             Rx   d 8 00 00 00 00 00 00 00 00
 2.958959 1  457             Rx   d 8 40 02 00 00 00 00 FF FF
 2.960166 1  196             Rx   d 8 00 FF 00 00 00 F8 00 00
 2.961412 1  122             Rx   d 8 7F C3 FF FF FF FF FF FF
 2.969028 1  3CC             Rx   d 8 F0 00 00 00 00 00 00 00
 2.970241 1  11E             Rx   d 8 FF FF FF 00 00 FF FF FF
 2.978983 1  59A             Rx   d 8 7F FF 00 00 00 00 00 00
 2.980176 1  56D             Rx   d 8 00 00 00 00 00 00 00 00
 2.981423 1  15C             Rx   d 8 00 00 00 00 00 00 00 00
 2.982671 1  1D4             Rx   d 8 00 00 00 00 00 00 00 00
 2.983927 1  152             Rx   d 8 00 00 00 00 00 00 00 00
 2.985163 1  1EB             Rx   d 8 00 0C 00 00 00 00 00 00
 2.986388 1  137             Rx   d 8 FF 00 00 00 00 00 00 00
 2.987647 1  165             Rx   d 8 00 00 00 00 00 00 00 00
 2.988879 1  1EC             Rx   d 8 00 00 00 03 00 00 00 00
 2.990121 1  1D5             Rx   d 8 C1 FF FF FF FF FF FF FF
 2.991385 1  16E             Rx   d 8 00 00 00 00 80 00 00 00
 2.992621 1  138             Rx   d 8 00 00 00 00 00 00 00 00
 2.993863 1  16D             Rx   d 8 00 00 00 00 00 00 00 00
 2.995092 1  15A             Rx   d 8 00 00 3F FE 00 00 00 00
 2.996343 1  192             Rx   d 8 00 00 00 00 00 00 00 00
 2.997580 1  15B             Rx   d 8 3F FF FF FF FF FF F0 00
 2.998878 1  130             Rx   d 8 00 00 00 00 00 00 00 00
 3.000077 1  12D             Rx   d 8 00 00 00 00 00 00 00 00
 3.009048 1  1A0             Rx   d 8 55 77 FF FF 00 00 77 00
 3.018965 1  17B             Rx   d 8 00 00 00 00 00 00 00 00
 3.020183 1  17A             Rx   d 8 00 00 00 00 C0 00 00 00
 3.029188 1  558             Rx   d 8 FF FF FF FF FF FF FF F8
 3.030375 1  110             Rx   d 8 FC 3F 3C 00 C0 03 00 00
 3.031620 1  54E             Rx   d 8 00 00 00 00 00 00 00 00
 3.039367 1  57D             Rx   d 8 FF 3F FF 3F 00 00 06 00
 3.040595 1  54D             Rx   d 8 00 00 00 00 00 00 00 00
 3.041848 1  557             Rx   d 8 FF FF FF FF FF FF FF F0
 3.043078 1  55A             Rx   d 8 00 09 00 00 00 00 00 00
 3.044299 1  15E             Rx   d 8 00 00 00 00 00 00 CC 03
 3.049423 1  1CB             Rx   d 8 FF C0 30 FC 00 00 00 00
 3.050676 1  54F             Rx   d 8 00 00 00 00 00 00 00 00
 3.051900 1  55E             Rx   d 8 00 03 00 3F C0 FF 00 00
 3.053135 1  55C             Rx   d 8 00 00 00 00 00 30 C0 00
 3.054607 1  1B1             Rx   d 8 04 01 01 00 01 01 00 04
 3.059212 1  56A             Rx   d 8 00 00 00 00 00 00 00 00
 3.060330 1  331             Rx   d 8 03 3C F3 CF 3C F3 CF 00
 3.061574 1  56B             Rx   d 8 00 00 00 00 00 00 00 00
 3.062837 1  55D             Rx   d 8 00 00 00 00 00 00 FF 00
 3.064081 1  57B             Rx   d 8 00 00 00 00 00 00 00 00
 3.065287 1  36E             Rx   d 8 00 00 00 C0 00 00 00 00
 3.066515 1  440             Rx   d 8 4D 12 00 00 00 00 FF FF
 3.068940 1  16A             Rx   d 8 03 0F F0 00 0F 00 FF 3C
 3.070204 1  56C             Rx   d 8 00 00 00 00 00 00 00 00
 3.071445 1  55B             Rx   d 8 00 00 00 00 00 00 00 00
 3.072664 1  57A             Rx   d 8 00 00 C0 00 00 00 00 00
 3.073915 1  1E8             Rx   d 8 00 00 00 00 00 00 00 00
 3.079252 1  126             Rx   d 8 0F 00 80 00 00 00 FF FF
 3.080462 1  17F             Rx   d 8 FF FF CF FF FF 0F E0 00
 3.081668 1  1AA             Rx   d 8 FF FF FF FF 33 00 00 00
 3.082959 1  59A             Rx   d 8 7F FF 00 00 00 00 00 00
 3.084144 1  195             Rx   d 8 00 00 00 01 E0 00 00 00
 3.085359 1  15D             Rx   d 8 00 00 00 00 00 18 00 F0
 3.086596 1  10E             Rx   d 8 00 00 00 00 00 00 00 00
 3.087814 1  3D5             Rx   d 8 FF 08 00 00 FC 00 00 00
 3.089204 1  135             Rx   d 8 0C 00 00 00 FF FF FF 00
 3.090433 1  360             Rx   d 8 00 0F 00 0F 0F 0F 00 00
 3.091685 1  364             Rx   d 8 00 00 00 00 00 00 00 00
 3.092921 1  362             Rx   d 8 00 00 00 00 00 00 00 00
 3.094166 1  363             Rx   d 8 00 00 00 00 00 00 00 00
 3.095411 1  56E             Rx   d 8 FF FF FF FF FF E0 00 00
 3.096670 1  361             Rx   d 8 00 00 00 00 00 00 00 00
 3.097873 1  169             Rx   d 8 0F 00 00 00 00 C0 03 E8
 3.099345 1  158             Rx   d 8 00 00 00 00 F9 C0 03 FF
 3.100576 1  161             Rx   d 8 03 00 00 00 00 00 00 00
 3.101785 1  171             Rx   d 8 F0 E0 00 00 00 00 00 00
 3.103059 1  504             Rx   d 8 00 03 00 00 00 00 00 00
 3.104278 1  12A             Rx   d 8 00 00 00 00 00 00 E0 0C
 3.105434 1  1B2             Rx   d 8 F0 F0 0F F3 C0 33 3C 00
 3.108886 1  1D1             Rx   d 8 00 00 00 00 00 00 03 00
 3.110150 1  2A4             Rx   d 8 FF FF FF FF FF FF FF 00
 3.111367 1  19E             Rx   d 8 00 00 00 00 00 00 00 00
 3.118967 1  164             Rx   d 8 00 00 00 00 00 00 00 00
 3.120167 1  1D0             Rx   d 8 00 00 00 00 00 00 00 00
 3.121381 1  1DF             Rx   d 8 FF FF 00 03 1F 80 F8 0C
 3.122619 1  1E5             Rx   d 8 00 0F FF FF FF 80 FF 00
 3.123872 1  1DA             Rx   d 8 00 00 00 30 00 00 00 00
 3.125040 1  173             Rx   d 8 C3 0F 6F 00 0C FF 7F 3C
 3.129003 1  57E             Rx   d 8 00 00 00 00 00 00 00 00
 3.130240 1  166             Rx   d 8 00 00 00 00 00 00 00 00
 3.131468 1  1AB             Rx   d 8 FF FF FF FF FF 7E 03 00
 3.132700 1  1D2             Rx   d 8 FF FF FF FF 1F FF 00 00
 3.138971 1  133             Rx   d 8 03 FF 00 00 00 00 00 FF
 3.140160 1  3CA             Rx   d 8 FF FF FF FF FF FF 00 00
 3.141376 1  19D             Rx   d 8 3F 3F 3F 00 F3 00 00 00
 3.148907 1  123             Rx   d 8 FF FF FF C0 FF FF FF FF
 3.150154 1  12C             Rx   d 8 00 00 00 00 00 00 00 00
 3.151381 1  1A3             Rx   d 8 FF 00 00 00 00 00 00 00
 3.152596 1  115             Rx   d 8 FF FF FF FF FF FF FF 0F
 3.153825 1  1E7             Rx   d 8 FF FF FF FF FF FF FF 00
 3.155058 1  17D             Rx   d 8 80 20 08 00 00 00 00 00
 3.156287 1  12B             Rx   d 8 00 00 00 00 00 00 00 00
 3.157540 1  38F             Rx   d 8 FE 00 00 00 00 00 00 00
 3.158947 1  122             Rx   d 8 7F C3 FF FF FF FF FF FF
 3.160151 1  196             Rx   d 8 00 FF 00 00 00 F8 00 00
 3.169129 1  44D             Rx   d 8 55 12 00 00 00 00 FF FF
 3.170347 1  11E             Rx   d 8 FF FF FF 00 00 FF FF FF
 3.171604 1  3CC             Rx   d 8 F0 00 00 00 00 00 00 00
 3.179190 1  15B             Rx   d 8 3F FF FF FF FF FF F0 00
 3.180417 1  59A             Rx   d 8 7F FF 00 00 00 00 00 00
 3.181642 1  515             Rx   d 8 00 00 00 00 00 00 00 00
 3.182898 1  192             Rx   d 8 00 00 00 00 00 00 00 00
 3.184128 1  56D             Rx   d 8 00 00 00 00 00 00 00 00
 3.185355 1  15A             Rx   d 8 00 00 3F FE 00 00 00 00
 3.186619 1  15C             Rx   d 8 00 00 00 00 00 00 00 00
 3.187861 1  16D             Rx   d 8 00 00 00 00 00 00 00 00
 3.189099 1  516             Rx   d 8 00 00 00 00 00 00 00 00
 3.190337 1  560             Rx   d 8 FF 1F 00 00 00 00 00 00
 3.191593 1  509             Rx   d 8 00 3F FF FF FF FF CF 00
 3.192815 1  138             Rx   d 8 00 00 00 00 00 00 00 00
 3.194058 1  165             Rx   d 8 00 00 00 00 00 00 00 00
 3.195312 1  1D4             Rx   d 8 00 00 00 00 00 00 00 00
 3.196539 1  137             Rx   d 8 FF 00 00 00 00 00 00 00
 3.197788 1  152             Rx   d 8 00 00 00 00 00 00 00 00
 3.199033 1  1EB             Rx   d 8 00 0C 00 00 00 00 00 00
 3.200290 1  16E             Rx   d 8 00 00 00 00 80 00 00 00
 3.201520 1  1D5             Rx   d 8 C1 FF FF FF FF FF FF FF
 3.202758 1  1EC             Rx   d 8 00 00 00 03 00 00 00 00
 3.204006 1  517             Rx   d 8 00 00 00 00 00 00 00 00
 3.205227 1  174             Rx   d 8 FF 0F 38 FF C0 03 00 00
 3.206463 1  12D             Rx   d 8 00 00 00 00 00 00 00 00
 3.207718 1  130             Rx   d 8 00 00 00 00 00 00 00 00
 3.208958 1  19F             Rx   d 8 03 FF 03 FF 00 00 0C 00
 3.210172 1  1A0             Rx   d 8 55 77 FF FF 00 00 77 00
 3.211419 1  51C             Rx   d 8 07 FF FF FF FF FF FF FF
 3.218695 1  17B             Rx   d 8 00 00 00 00 00 00 00 00
 3.219932 1  17A             Rx   d 8 00 00 00 00 C0 00 00 00
 3.228854 1  54E             Rx   d 8 00 00 00 00 00 00 00 00
 3.230052 1  110             Rx   d 8 FC 3F 3C 00 C0 03 00 00
 3.231293 1  558             Rx   d 8 FF FF FF FF FF FF FF F8
 3.239070 1  57D             Rx   d 8 FF 3F FF 3F 00 00 06 00
 3.240300 1  15E             Rx   d 8 00 00 00 00 00 00 CC 03
 3.241549 1  55A             Rx   d 8 00 09 00 00 00 00 00 00
 3.242779 1  54D             Rx   d 8 00 00 00 00 00 00 00 00
 3.244030 1  557             Rx   d 8 FF FF FF FF FF FF FF F0
 3.249117 1  55C             Rx   d 8 00 00 00 00 00 30 C0 00
