date Tue May 20 11:32:20.289 AM 2025
base hex  timestamps absolute
internal events logged
Begin Triggerblock Tue May 20 11:32:19.627 AM 2025
 0.000000 Start of measurement
 0.000000 1  1B2             Rx   d 8 F0 F0 0F F3 C0 33 3C 00
 0.150014 1  1B1             Rx   d 8 04 01 01 00 01 01 00 04
 0.160048 1  36E             Rx   d 8 00 00 00 C0 00 00 00 00
 0.180037 1  3D5             Rx   d 8 FF 08 00 00 FC 00 00 00
 0.199977 1  1B2             Rx   d 8 F0 F0 0F F3 C0 33 3C 00
 0.350016 1  1B1             Rx   d 8 04 01 01 00 01 01 00 04
 0.360020 1  36E             Rx   d 8 00 00 00 C0 00 00 00 00
 0.380033 1  3D5             Rx   d 8 FF 08 00 00 FC 00 00 00
 0.399980 1  1B2             Rx   d 8 F0 F0 0F F3 C0 33 3C 00
 0.550072 1  1B1             Rx   d 8 04 01 01 00 01 01 00 04
 0.560045 1  36E             Rx   d 8 00 00 00 C0 00 00 00 00
 0.580059 1  3D5             Rx   d 8 FF 08 00 00 FC 00 00 00
 0.600061 1  1B2             Rx   d 8 F0 F0 0F F3 C0 33 3C 00
 0.695096 1  457             Rx   d 8 57 04 00 00 00 00 FF FF
 0.750088 1  1B1             Rx   d 8 04 01 01 00 01 01 00 04
 0.760044 1  36E             Rx   d 8 00 00 00 C0 00 00 00 00
 0.780063 1  3D5             Rx   d 8 FF 08 00 00 FC 00 00 00
 0.800044 1  1B2             Rx   d 8 F0 F0 0F F3 C0 33 3C 00
 0.950046 1  1B1             Rx   d 8 04 01 01 00 01 01 00 04
 0.960059 1  36E             Rx   d 8 00 00 00 C0 00 00 00 00
 0.980063 1  3D5             Rx   d 8 FF 08 00 00 FC 00 00 00
 1.000012 1  1B2             Rx   d 8 F0 F0 0F F3 C0 33 3C 00
 1.150077 1  1B1             Rx   d 8 04 01 01 00 01 01 00 04
 1.160074 1  36E             Rx   d 8 00 00 00 C0 00 00 00 00
 1.180072 1  3D5             Rx   d 8 FF 08 00 00 FC 00 00 00
 1.200088 1  1B2             Rx   d 8 F0 F0 0F F3 C0 33 3C 00
 1.218732 1  716             Tx   d 8 02 10 01 00 00 00 00 00
 1.240081 1  71E             Rx   d 8 06 50 01 00 32 01 F4 AA
 1.350065 1  1B1             Rx   d 8 04 01 01 00 01 01 00 04
 1.360060 1  36E             Rx   d 8 00 00 00 C0 00 00 00 00
 1.380048 1  3D5             Rx   d 8 FF 08 00 00 FC 00 00 00
 1.400048 1  1B2             Rx   d 8 F0 F0 0F F3 C0 33 3C 00
 1.550208 1  1B1             Rx   d 8 04 01 01 00 01 01 00 04
 1.560194 1  36E             Rx   d 8 00 00 00 C0 00 00 00 00
 1.580052 1  3D5             Rx   d 8 FF 08 00 00 FC 00 00 00
 1.600077 1  1B2             Rx   d 8 F0 F0 0F F3 C0 33 3C 00
 1.695078 1  457             Rx   d 8 57 04 00 00 00 00 FF FF
 1.750076 1  1B1             Rx   d 8 04 01 01 00 01 01 00 04
 1.760030 1  36E             Rx   d 8 00 00 00 C0 00 00 00 00
 1.780098 1  3D5             Rx   d 8 FF 08 00 00 FC 00 00 00
 1.800069 1  1B2             Rx   d 8 F0 F0 0F F3 C0 33 3C 00
 1.950091 1  1B1             Rx   d 8 04 01 01 00 01 01 00 04
 1.960050 1  36E             Rx   d 8 00 00 00 C0 00 00 00 00
 1.980094 1  3D5             Rx   d 8 FF 08 00 00 FC 00 00 00
 1.999964 1  1B2             Rx   d 8 F0 F0 0F F3 C0 33 3C 00
 2.149996 1  1B1             Rx   d 8 04 01 01 00 01 01 00 04
 2.159992 1  36E             Rx   d 8 00 00 00 C0 00 00 00 00
 2.179997 1  3D5             Rx   d 8 FF 08 00 00 FC 00 00 00
 2.199950 1  1B2             Rx   d 8 F0 F0 0F F3 C0 33 3C 00
 2.350009 1  1B1             Rx   d 8 04 01 01 00 01 01 00 04
 2.359998 1  36E             Rx   d 8 00 00 00 C0 00 00 00 00
 2.379994 1  3D5             Rx   d 8 FF 08 00 00 FC 00 00 00
 2.399954 1  1B2             Rx   d 8 F0 F0 0F F3 C0 33 3C 00
 2.549999 1  1B1             Rx   d 8 04 01 01 00 01 01 00 04
 2.560003 1  36E             Rx   d 8 00 00 00 C0 00 00 00 00
 2.579995 1  3D5             Rx   d 8 FF 08 00 00 FC 00 00 00
 2.599967 1  1B2             Rx   d 8 F0 F0 0F F3 C0 33 3C 00
 2.695035 1  457             Rx   d 8 57 04 00 00 00 00 FF FF
 2.750000 1  1B1             Rx   d 8 04 01 01 00 01 01 00 04
 2.760007 1  36E             Rx   d 8 00 00 00 C0 00 00 00 00
 2.780004 1  3D5             Rx   d 8 FF 08 00 00 FC 00 00 00
 2.799968 1  1B2             Rx   d 8 F0 F0 0F F3 C0 33 3C 00
 2.950010 1  1B1             Rx   d 8 04 01 01 00 01 01 00 04
 2.960014 1  36E             Rx   d 8 00 00 00 C0 00 00 00 00
 2.980017 1  3D5             Rx   d 8 FF 08 00 00 FC 00 00 00
 2.999969 1  1B2             Rx   d 8 F0 F0 0F F3 C0 33 3C 00
 3.150016 1  1B1             Rx   d 8 04 01 01 00 01 01 00 04
 3.160008 1  36E             Rx   d 8 00 00 00 C0 00 00 00 00
 3.180015 1  3D5             Rx   d 8 FF 08 00 00 FC 00 00 00
 3.199970 1  1B2             Rx   d 8 F0 F0 0F F3 C0 33 3C 00
 3.350017 1  1B1             Rx   d 8 04 01 01 00 01 01 00 04
 3.360009 1  36E             Rx   d 8 00 00 00 C0 00 00 00 00
 3.380016 1  3D5             Rx   d 8 FF 08 00 00 FC 00 00 00
 3.399977 1  1B2             Rx   d 8 F0 F0 0F F3 C0 33 3C 00
 3.481484 1  716             Tx   d 8 02 10 03 00 00 00 00 00
 3.500035 1  71E             Rx   d 8 06 50 03 00 32 01 F4 AA
 3.550022 1  1B1             Rx   d 8 04 01 01 00 01 01 00 04
 3.560026 1  36E             Rx   d 8 00 00 00 C0 00 00 00 00
 3.580016 1  3D5             Rx   d 8 FF 08 00 00 FC 00 00 00
 3.599987 1  1B2             Rx   d 8 F0 F0 0F F3 C0 33 3C 00
 3.695052 1  457             Rx   d 8 57 04 00 00 00 00 FF FF
 3.750037 1  1B1             Rx   d 8 04 01 01 00 01 01 00 04
 3.760025 1  36E             Rx   d 8 00 00 00 C0 00 00 00 00
 3.780021 1  3D5             Rx   d 8 FF 08 00 00 FC 00 00 00
 3.799978 1  1B2             Rx   d 8 F0 F0 0F F3 C0 33 3C 00
 3.950023 1  1B1             Rx   d 8 04 01 01 00 01 01 00 04
 3.960050 1  36E             Rx   d 8 00 00 00 C0 00 00 00 00
 3.980044 1  3D5             Rx   d 8 FF 08 00 00 FC 00 00 00
 3.999974 1  1B2             Rx   d 8 F0 F0 0F F3 C0 33 3C 00
 4.150035 1  1B1             Rx   d 8 04 01 01 00 01 01 00 04
 4.160045 1  36E             Rx   d 8 00 00 00 C0 00 00 00 00
 4.180035 1  3D5             Rx   d 8 FF 08 00 00 FC 00 00 00
 4.199975 1  1B2             Rx   d 8 F0 F0 0F F3 C0 33 3C 00
 4.350047 1  1B1             Rx   d 8 04 01 01 00 01 01 00 04
 4.360050 1  36E             Rx   d 8 00 00 00 C0 00 00 00 00
 4.380037 1  3D5             Rx   d 8 FF 08 00 00 FC 00 00 00
 4.399977 1  1B2             Rx   d 8 F0 F0 0F F3 C0 33 3C 00
 4.550052 1  1B1             Rx   d 8 04 01 01 00 01 01 00 04
 4.560055 1  36E             Rx   d 8 00 00 00 C0 00 00 00 00
 4.580052 1  3D5             Rx   d 8 FF 08 00 00 FC 00 00 00
 4.599993 1  1B2             Rx   d 8 F0 F0 0F F3 C0 33 3C 00
 4.695074 1  457             Rx   d 8 57 04 00 00 00 00 FF FF
 4.750040 1  1B1             Rx   d 8 04 01 01 00 01 01 00 04
 4.760059 1  36E             Rx   d 8 00 00 00 C0 00 00 00 00
 4.780054 1  3D5             Rx   d 8 FF 08 00 00 FC 00 00 00
 4.799985 1  1B2             Rx   d 8 F0 F0 0F F3 C0 33 3C 00
 4.950044 1  1B1             Rx   d 8 04 01 01 00 01 01 00 04
 4.960071 1  36E             Rx   d 8 00 00 00 C0 00 00 00 00
 4.980058 1  3D5             Rx   d 8 FF 08 00 00 FC 00 00 00
 4.999995 1  1B2             Rx   d 8 F0 F0 0F F3 C0 33 3C 00
 5.150058 1  1B1             Rx   d 8 04 01 01 00 01 01 00 04
 5.160066 1  36E             Rx   d 8 00 00 00 C0 00 00 00 00
 5.180068 1  3D5             Rx   d 8 FF 08 00 00 FC 00 00 00
 5.200012 1  1B2             Rx   d 8 F0 F0 0F F3 C0 33 3C 00
 5.350058 1  1B1             Rx   d 8 04 01 01 00 01 01 00 04
 5.360055 1  36E             Rx   d 8 00 00 00 C0 00 00 00 00
 5.380069 1  3D5             Rx   d 8 FF 08 00 00 FC 00 00 00
 5.400012 1  1B2             Rx   d 8 F0 F0 0F F3 C0 33 3C 00
 5.550069 1  1B1             Rx   d 8 04 01 01 00 01 01 00 04
 5.560063 1  36E             Rx   d 8 00 00 00 C0 00 00 00 00
 5.580079 1  3D5             Rx   d 8 FF 08 00 00 FC 00 00 00
 5.600013 1  1B2             Rx   d 8 F0 F0 0F F3 C0 33 3C 00
 5.695095 1  457             Rx   d 8 57 04 00 00 00 00 FF FF
 5.750130 1  1B1             Rx   d 8 04 01 01 00 01 01 00 04
 5.753062 1  716             Tx   d 8 02 3E 00 00 00 00 00 00
 5.760075 1  36E             Rx   d 8 00 00 00 C0 00 00 00 00
 5.761239 1  71E             Rx   d 8 02 7E 00 AA AA AA AA AA
 5.780117 1  3D5             Rx   d 8 FF 08 00 00 FC 00 00 00
 5.800031 1  1B2             Rx   d 8 F0 F0 0F F3 C0 33 3C 00
 5.950081 1  1B1             Rx   d 8 04 01 01 00 01 01 00 04
 5.960083 1  36E             Rx   d 8 00 00 00 C0 00 00 00 00
 5.980111 1  3D5             Rx   d 8 FF 08 00 00 FC 00 00 00
 6.000032 1  1B2             Rx   d 8 F0 F0 0F F3 C0 33 3C 00
 6.150079 1  1B1             Rx   d 8 04 01 01 00 01 01 00 04
 6.160072 1  36E             Rx   d 8 00 00 00 C0 00 00 00 00
 6.180089 1  3D5             Rx   d 8 FF 08 00 00 FC 00 00 00
 6.200017 1  1B2             Rx   d 8 F0 F0 0F F3 C0 33 3C 00
 6.350087 1  1B1             Rx   d 8 04 01 01 00 01 01 00 04
 6.360081 1  36E             Rx   d 8 00 00 00 C0 00 00 00 00
 6.380083 1  3D5             Rx   d 8 FF 08 00 00 FC 00 00 00
 6.400021 1  1B2             Rx   d 8 F0 F0 0F F3 C0 33 3C 00
 6.550188 1  1B1             Rx   d 8 04 01 01 00 01 01 00 04
 6.560186 1  36E             Rx   d 8 00 00 00 C0 00 00 00 00
 6.580204 1  3D5             Rx   d 8 FF 08 00 00 FC 00 00 00
 6.600134 1  1B2             Rx   d 8 F0 F0 0F F3 C0 33 3C 00
 6.695226 1  457             Rx   d 8 57 04 00 00 00 00 FF FF
 6.750232 1  1B1             Rx   d 8 04 01 01 00 01 01 00 04
 6.760175 1  36E             Rx   d 8 00 00 00 C0 00 00 00 00
 6.780196 1  3D5             Rx   d 8 FF 08 00 00 FC 00 00 00
 6.800139 1  1B2             Rx   d 8 F0 F0 0F F3 C0 33 3C 00
 6.950188 1  1B1             Rx   d 8 04 01 01 00 01 01 00 04
 6.960189 1  36E             Rx   d 8 00 00 00 C0 00 00 00 00
 6.980196 1  3D5             Rx   d 8 FF 08 00 00 FC 00 00 00
 7.000127 1  1B2             Rx   d 8 F0 F0 0F F3 C0 33 3C 00
 7.150198 1  1B1             Rx   d 8 04 01 01 00 01 01 00 04
 7.160196 1  36E             Rx   d 8 00 00 00 C0 00 00 00 00
 7.180207 1  3D5             Rx   d 8 FF 08 00 00 FC 00 00 00
 7.200140 1  1B2             Rx   d 8 F0 F0 0F F3 C0 33 3C 00
 7.350205 1  1B1             Rx   d 8 04 01 01 00 01 01 00 04
 7.360203 1  36E             Rx   d 8 00 00 00 C0 00 00 00 00
 7.380192 1  3D5             Rx   d 8 FF 08 00 00 FC 00 00 00
 7.400161 1  1B2             Rx   d 8 F0 F0 0F F3 C0 33 3C 00
 7.550245 1  1B1             Rx   d 8 04 01 01 00 01 01 00 04
 7.560194 1  36E             Rx   d 8 00 00 00 C0 00 00 00 00
 7.580190 1  3D5             Rx   d 8 FF 08 00 00 FC 00 00 00
 7.600154 1  1B2             Rx   d 8 F0 F0 0F F3 C0 33 3C 00
 7.695247 1  457             Rx   d 8 57 04 00 00 00 00 FF FF
 7.750210 1  1B1             Rx   d 8 04 01 01 00 01 01 00 04
 7.760206 1  36E             Rx   d 8 00 00 00 C0 00 00 00 00
 7.780195 1  3D5             Rx   d 8 FF 08 00 00 FC 00 00 00
 7.800164 1  1B2             Rx   d 8 F0 F0 0F F3 C0 33 3C 00
 7.950216 1  1B1             Rx   d 8 04 01 01 00 01 01 00 04
 7.960208 1  36E             Rx   d 8 00 00 00 C0 00 00 00 00
 7.980218 1  3D5             Rx   d 8 FF 08 00 00 FC 00 00 00
 8.000165 1  1B2             Rx   d 8 F0 F0 0F F3 C0 33 3C 00
 8.042221 1  716             Tx   d 8 03 22 F1 DD 00 00 00 00
 8.060137 1  71E             Rx   d 8 10 0B 62 F1 DD 30 31 2E
 8.150188 1  1B1             Rx   d 8 04 01 01 00 01 01 00 04
 8.160178 1  36E             Rx   d 8 00 00 00 C0 00 00 00 00
 8.180189 1  3D5             Rx   d 8 FF 08 00 00 FC 00 00 00
 8.200194 1  1B2             Rx   d 8 F0 F0 0F F3 C0 33 3C 00
 8.350124 1  1B1             Rx   d 8 04 01 01 00 01 01 00 04
 8.360131 1  36E             Rx   d 8 00 00 00 C0 00 00 00 00
 8.380111 1  3D5             Rx   d 8 FF 08 00 00 FC 00 00 00
 8.400075 1  1B2             Rx   d 8 F0 F0 0F F3 C0 33 3C 00
 8.550127 1  1B1             Rx   d 8 04 01 01 00 01 01 00 04
 8.560137 1  36E             Rx   d 8 00 00 00 C0 00 00 00 00
 8.580120 1  3D5             Rx   d 8 FF 08 00 00 FC 00 00 00
 8.600061 1  1B2             Rx   d 8 F0 F0 0F F3 C0 33 3C 00
 8.695156 1  457             Rx   d 8 57 04 00 00 00 00 FF FF
 8.750116 1  1B1             Rx   d 8 04 01 01 00 01 01 00 04
 8.760126 1  36E             Rx   d 8 00 00 00 C0 00 00 00 00
 8.780121 1  3D5             Rx   d 8 FF 08 00 00 FC 00 00 00
 8.800062 1  1B2             Rx   d 8 F0 F0 0F F3 C0 33 3C 00
 8.950128 1  1B1             Rx   d 8 04 01 01 00 01 01 00 04
 8.960139 1  36E             Rx   d 8 00 00 00 C0 00 00 00 00
 8.980122 1  3D5             Rx   d 8 FF 08 00 00 FC 00 00 00
 9.000078 1  1B2             Rx   d 8 F0 F0 0F F3 C0 33 3C 00
 9.150139 1  1B1             Rx   d 8 04 01 01 00 01 01 00 04
 9.160142 1  36E             Rx   d 8 00 00 00 C0 00 00 00 00
 9.180130 1  3D5             Rx   d 8 FF 08 00 00 FC 00 00 00
 9.200079 1  1B2             Rx   d 8 F0 F0 0F F3 C0 33 3C 00
 9.350137 1  1B1             Rx   d 8 04 01 01 00 01 01 00 04
 9.360150 1  36E             Rx   d 8 00 00 00 C0 00 00 00 00
 9.380137 1  3D5             Rx   d 8 FF 08 00 00 FC 00 00 00
 9.400077 1  1B2             Rx   d 8 F0 F0 0F F3 C0 33 3C 00
 9.550133 1  1B1             Rx   d 8 04 01 01 00 01 01 00 04
 9.560150 1  36E             Rx   d 8 00 00 00 C0 00 00 00 00
 9.580151 1  3D5             Rx   d 8 FF 08 00 00 FC 00 00 00
 9.600081 1  1B2             Rx   d 8 F0 F0 0F F3 C0 33 3C 00
 9.695167 1  457             Rx   d 8 57 04 00 00 00 00 FF FF
 9.750134 1  1B1             Rx   d 8 04 01 01 00 01 01 00 04
 9.760135 1  36E             Rx   d 8 00 00 00 C0 00 00 00 00
 9.780158 1  3D5             Rx   d 8 FF 08 00 00 FC 00 00 00
 9.800086 1  1B2             Rx   d 8 F0 F0 0F F3 C0 33 3C 00
 9.950154 1  1B1             Rx   d 8 04 01 01 00 01 01 00 04
 9.960147 1  36E             Rx   d 8 00 00 00 C0 00 00 00 00
 9.980156 1  3D5             Rx   d 8 FF 08 00 00 FC 00 00 00
 10.000094 1  1B2             Rx   d 8 F0 F0 0F F3 C0 33 3C 00
 10.150154 1  1B1             Rx   d 8 04 01 01 00 01 01 00 04
 10.160152 1  36E             Rx   d 8 00 00 00 C0 00 00 00 00
 10.180165 1  3D5             Rx   d 8 FF 08 00 00 FC 00 00 00
 10.200100 1  1B2             Rx   d 8 F0 F0 0F F3 C0 33 3C 00
 10.334281 1  716             Tx   d 8 03 22 F1 00 00 00 00 00
 10.350182 1  1B1             Rx   d 8 04 01 01 00 01 01 00 04
 10.351299 1  71E             Rx   d 8 06 62 F1 00 25 04 01 AA
 10.360178 1  36E             Rx   d 8 00 00 00 C0 00 00 00 00
 10.380146 1  3D5             Rx   d 8 FF 08 00 00 FC 00 00 00
 10.400129 1  1B2             Rx   d 8 F0 F0 0F F3 C0 33 3C 00
 10.550159 1  1B1             Rx   d 8 04 01 01 00 01 01 00 04
 10.560180 1  36E             Rx   d 8 00 00 00 C0 00 00 00 00
 10.580169 1  3D5             Rx   d 8 FF 08 00 00 FC 00 00 00
 10.600113 1  1B2             Rx   d 8 F0 F0 0F F3 C0 33 3C 00
 10.695187 1  457             Rx   d 8 57 04 00 00 00 00 FF FF
 10.750164 1  1B1             Rx   d 8 04 01 01 00 01 01 00 04
 10.760160 1  36E             Rx   d 8 00 00 00 C0 00 00 00 00
 10.780161 1  3D5             Rx   d 8 FF 08 00 00 FC 00 00 00
 10.800119 1  1B2             Rx   d 8 F0 F0 0F F3 C0 33 3C 00
 10.950169 1  1B1             Rx   d 8 04 01 01 00 01 01 00 04
 10.960165 1  36E             Rx   d 8 00 00 00 C0 00 00 00 00
 10.980163 1  3D5             Rx   d 8 FF 08 00 00 FC 00 00 00
 11.000135 1  1B2             Rx   d 8 F0 F0 0F F3 C0 33 3C 00
 11.150169 1  1B1             Rx   d 8 04 01 01 00 01 01 00 04
 11.160184 1  36E             Rx   d 8 00 00 00 C0 00 00 00 00
 11.180172 1  3D5             Rx   d 8 FF 08 00 00 FC 00 00 00
 11.200111 1  1B2             Rx   d 8 F0 F0 0F F3 C0 33 3C 00
 11.350187 1  1B1             Rx   d 8 04 01 01 00 01 01 00 04
 11.360192 1  36E             Rx   d 8 00 00 00 C0 00 00 00 00
 11.380181 1  3D5             Rx   d 8 FF 08 00 00 FC 00 00 00
 11.400114 1  1B2             Rx   d 8 F0 F0 0F F3 C0 33 3C 00
 11.550178 1  1B1             Rx   d 8 04 01 01 00 01 01 00 04
 11.560203 1  36E             Rx   d 8 00 00 00 C0 00 00 00 00
 11.580185 1  3D5             Rx   d 8 FF 08 00 00 FC 00 00 00
 11.600111 1  1B2             Rx   d 8 F0 F0 0F F3 C0 33 3C 00
 11.695211 1  457             Rx   d 8 57 04 00 00 00 00 FF FF
 11.750185 1  1B1             Rx   d 8 04 01 01 00 01 01 00 04
 11.760190 1  36E             Rx   d 8 00 00 00 C0 00 00 00 00
 11.780184 1  3D5             Rx   d 8 FF 08 00 00 FC 00 00 00
 11.800124 1  1B2             Rx   d 8 F0 F0 0F F3 C0 33 3C 00
 11.950186 1  1B1             Rx   d 8 04 01 01 00 01 01 00 04
 11.960196 1  36E             Rx   d 8 00 00 00 C0 00 00 00 00
 11.980216 1  3D5             Rx   d 8 FF 08 00 00 FC 00 00 00
 12.000140 1  1B2             Rx   d 8 F0 F0 0F F3 C0 33 3C 00
 12.150198 1  1B1             Rx   d 8 04 01 01 00 01 01 00 04
 12.160205 1  36E             Rx   d 8 00 00 00 C0 00 00 00 00
 12.180194 1  3D5             Rx   d 8 FF 08 00 00 FC 00 00 00
 12.200141 1  1B2             Rx   d 8 F0 F0 0F F3 C0 33 3C 00
 12.350227 1  1B1             Rx   d 8 04 01 01 00 01 01 00 04
 12.360216 1  36E             Rx   d 8 00 00 00 C0 00 00 00 00
 12.380193 1  3D5             Rx   d 8 FF 08 00 00 FC 00 00 00
 12.400127 1  1B2             Rx   d 8 F0 F0 0F F3 C0 33 3C 00
 12.550200 1  1B1             Rx   d 8 04 01 01 00 01 01 00 04
 12.560212 1  36E             Rx   d 8 00 00 00 C0 00 00 00 00
 12.580219 1  3D5             Rx   d 8 FF 08 00 00 FC 00 00 00
 12.592344 1  716             Tx   d 8 03 22 F1 87 00 00 00 00
 12.600201 1  1B2             Rx   d 8 F0 F0 0F F3 C0 33 3C 00
 12.610163 1  71E             Rx   d 8 10 0D 62 F1 87 39 36 35
 12.695243 1  457             Rx   d 8 57 04 00 00 00 00 FF FF
 12.750214 1  1B1             Rx   d 8 04 01 01 00 01 01 00 04
 12.760237 1  36E             Rx   d 8 00 00 00 C0 00 00 00 00
 12.780236 1  3D5             Rx   d 8 FF 08 00 00 FC 00 00 00
 12.800177 1  1B2             Rx   d 8 F0 F0 0F F3 C0 33 3C 00
 12.950218 1  1B1             Rx   d 8 04 01 01 00 01 01 00 04
 12.960223 1  36E             Rx   d 8 00 00 00 C0 00 00 00 00
 12.980205 1  3D5             Rx   d 8 FF 08 00 00 FC 00 00 00
 13.000153 1  1B2             Rx   d 8 F0 F0 0F F3 C0 33 3C 00
 13.150218 1  1B1             Rx   d 8 04 01 01 00 01 01 00 04
 13.160237 1  36E             Rx   d 8 00 00 00 C0 00 00 00 00
 13.180210 1  3D5             Rx   d 8 FF 08 00 00 FC 00 00 00
 13.200165 1  1B2             Rx   d 8 F0 F0 0F F3 C0 33 3C 00
 13.350328 1  1B1             Rx   d 8 04 01 01 00 01 01 00 04
 13.360331 1  36E             Rx   d 8 00 00 00 C0 00 00 00 00
 13.380310 1  3D5             Rx   d 8 FF 08 00 00 FC 00 00 00
 13.400244 1  1B2             Rx   d 8 F0 F0 0F F3 C0 33 3C 00
 13.550317 1  1B1             Rx   d 8 04 01 01 00 01 01 00 04
 13.560334 1  36E             Rx   d 8 00 00 00 C0 00 00 00 00
 13.580327 1  3D5             Rx   d 8 FF 08 00 00 FC 00 00 00
 13.600260 1  1B2             Rx   d 8 F0 F0 0F F3 C0 33 3C 00
 13.695339 1  457             Rx   d 8 57 04 00 00 00 00 FF FF
 13.750318 1  1B1             Rx   d 8 04 01 01 00 01 01 00 04
 13.760316 1  36E             Rx   d 8 00 00 00 C0 00 00 00 00
 13.780330 1  3D5             Rx   d 8 FF 08 00 00 FC 00 00 00
 13.800266 1  1B2             Rx   d 8 F0 F0 0F F3 C0 33 3C 00
 13.950340 1  1B1             Rx   d 8 04 01 01 00 01 01 00 04
 13.960333 1  36E             Rx   d 8 00 00 00 C0 00 00 00 00
 13.980364 1  3D5             Rx   d 8 FF 08 00 00 FC 00 00 00
 14.000273 1  1B2             Rx   d 8 F0 F0 0F F3 C0 33 3C 00
 14.150344 1  1B1             Rx   d 8 04 01 01 00 01 01 00 04
 14.160350 1  36E             Rx   d 8 00 00 00 C0 00 00 00 00
 14.180343 1  3D5             Rx   d 8 FF 08 00 00 FC 00 00 00
 14.200284 1  1B2             Rx   d 8 F0 F0 0F F3 C0 33 3C 00
 14.350324 1  1B1             Rx   d 8 04 01 01 00 01 01 00 04
 14.360337 1  36E             Rx   d 8 00 00 00 C0 00 00 00 00
 14.380358 1  3D5             Rx   d 8 FF 08 00 00 FC 00 00 00
 14.400260 1  1B2             Rx   d 8 F0 F0 0F F3 C0 33 3C 00
 14.550340 1  1B1             Rx   d 8 04 01 01 00 01 01 00 04
 14.560336 1  36E             Rx   d 8 00 00 00 C0 00 00 00 00
 14.580335 1  3D5             Rx   d 8 FF 08 00 00 FC 00 00 00
 14.600283 1  1B2             Rx   d 8 F0 F0 0F F3 C0 33 3C 00
 14.695369 1  457             Rx   d 8 57 04 00 00 00 00 FF FF
 14.750326 1  1B1             Rx   d 8 04 01 01 00 01 01 00 04
 14.760346 1  36E             Rx   d 8 00 00 00 C0 00 00 00 00
 14.780361 1  3D5             Rx   d 8 FF 08 00 00 FC 00 00 00
 14.800278 1  1B2             Rx   d 8 F0 F0 0F F3 C0 33 3C 00
 14.852811 1  716             Tx   d 8 03 22 F1 8B 00 00 00 00
 14.870340 1  71E             Rx   d 8 07 62 F1 8B 61 38 31 32
 14.950319 1  1B1             Rx   d 8 04 01 01 00 01 01 00 04
 14.960328 1  36E             Rx   d 8 00 00 00 C0 00 00 00 00
 14.980317 1  3D5             Rx   d 8 FF 08 00 00 FC 00 00 00
 15.000363 1  1B2             Rx   d 8 F0 F0 0F F3 C0 33 3C 00
 15.150298 1  1B1             Rx   d 8 04 01 01 00 01 01 00 04
 15.160308 1  36E             Rx   d 8 00 00 00 C0 00 00 00 00
 15.180311 1  3D5             Rx   d 8 FF 08 00 00 FC 00 00 00
 15.200234 1  1B2             Rx   d 8 F0 F0 0F F3 C0 33 3C 00
 15.350358 1  1B1             Rx   d 8 04 01 01 00 01 01 00 04
 15.360370 1  36E             Rx   d 8 00 00 00 C0 00 00 00 00
 15.380359 1  3D5             Rx   d 8 FF 08 00 00 FC 00 00 00
 15.400290 1  1B2             Rx   d 8 F0 F0 0F F3 C0 33 3C 00
 15.550352 1  1B1             Rx   d 8 04 01 01 00 01 01 00 04
 15.560371 1  36E             Rx   d 8 00 00 00 C0 00 00 00 00
 15.580374 1  3D5             Rx   d 8 FF 08 00 00 FC 00 00 00
 15.600292 1  1B2             Rx   d 8 F0 F0 0F F3 C0 33 3C 00
 15.695397 1  457             Rx   d 8 57 04 00 00 00 00 FF FF
 15.750378 1  1B1             Rx   d 8 04 01 01 00 01 01 00 04
 15.760368 1  36E             Rx   d 8 00 00 00 C0 00 00 00 00
 15.780376 1  3D5             Rx   d 8 FF 08 00 00 FC 00 00 00
 15.800308 1  1B2             Rx   d 8 F0 F0 0F F3 C0 33 3C 00
 15.950363 1  1B1             Rx   d 8 04 01 01 00 01 01 00 04
 15.960378 1  36E             Rx   d 8 00 00 00 C0 00 00 00 00
 15.980391 1  3D5             Rx   d 8 FF 08 00 00 FC 00 00 00
 16.000325 1  1B2             Rx   d 8 F0 F0 0F F3 C0 33 3C 00
 16.150375 1  1B1             Rx   d 8 04 01 01 00 01 01 00 04
 16.160392 1  36E             Rx   d 8 00 00 00 C0 00 00 00 00
 16.180380 1  3D5             Rx   d 8 FF 08 00 00 FC 00 00 00
 16.200324 1  1B2             Rx   d 8 F0 F0 0F F3 C0 33 3C 00
 16.350387 1  1B1             Rx   d 8 04 01 01 00 01 01 00 04
 16.360388 1  36E             Rx   d 8 00 00 00 C0 00 00 00 00
 16.380371 1  3D5             Rx   d 8 FF 08 00 00 FC 00 00 00
 16.400339 1  1B2             Rx   d 8 F0 F0 0F F3 C0 33 3C 00
 16.550387 1  1B1             Rx   d 8 04 01 01 00 01 01 00 04
 16.560376 1  36E             Rx   d 8 00 00 00 C0 00 00 00 00
 16.580374 1  3D5             Rx   d 8 FF 08 00 00 FC 00 00 00
 16.600360 1  1B2             Rx   d 8 F0 F0 0F F3 C0 33 3C 00
 16.695419 1  457             Rx   d 8 57 04 00 00 00 00 FF FF
 16.750389 1  1B1             Rx   d 8 04 01 01 00 01 01 00 04
 16.760385 1  36E             Rx   d 8 00 00 00 C0 00 00 00 00
 16.780378 1  3D5             Rx   d 8 FF 08 00 00 FC 00 00 00
 16.800339 1  1B2             Rx   d 8 F0 F0 0F F3 C0 33 3C 00
 16.950393 1  1B1             Rx   d 8 04 01 01 00 01 01 00 04
 16.960393 1  36E             Rx   d 8 00 00 00 C0 00 00 00 00
 16.980380 1  3D5             Rx   d 8 FF 08 00 00 FC 00 00 00
 17.000358 1  1B2             Rx   d 8 F0 F0 0F F3 C0 33 3C 00
 17.150425 1  1B1             Rx   d 8 04 01 01 00 01 01 00 04
 17.156409 1  716             Tx   d 8 03 22 F1 8C 00 00 00 00
 17.160488 1  36E             Rx   d 8 00 00 00 C0 00 00 00 00
 17.170449 1  71E             Rx   d 8 10 0D 62 F1 8C 00 00 00
 17.180437 1  3D5             Rx   d 8 FF 08 00 00 FC 00 00 00
 17.200306 1  1B2             Rx   d 8 F0 F0 0F F3 C0 33 3C 00
 17.350423 1  1B1             Rx   d 8 04 01 01 00 01 01 00 04
 17.360397 1  36E             Rx   d 8 00 00 00 C0 00 00 00 00
 17.380438 1  3D5             Rx   d 8 FF 08 00 00 FC 00 00 00
 17.400263 1  1B2             Rx   d 8 F0 F0 0F F3 C0 33 3C 00
 17.550310 1  1B1             Rx   d 8 04 01 01 00 01 01 00 04
 17.560307 1  36E             Rx   d 8 00 00 00 C0 00 00 00 00
 17.580315 1  3D5             Rx   d 8 FF 08 00 00 FC 00 00 00
 17.600248 1  1B2             Rx   d 8 F0 F0 0F F3 C0 33 3C 00
 17.695331 1  457             Rx   d 8 57 04 00 00 00 00 FF FF
 17.750307 1  1B1             Rx   d 8 04 01 01 00 01 01 00 04
 17.760308 1  36E             Rx   d 8 00 00 00 C0 00 00 00 00
 17.780320 1  3D5             Rx   d 8 FF 08 00 00 FC 00 00 00
 17.800259 1  1B2             Rx   d 8 F0 F0 0F F3 C0 33 3C 00
 17.950310 1  1B1             Rx   d 8 04 01 01 00 01 01 00 04
 17.960316 1  36E             Rx   d 8 00 00 00 C0 00 00 00 00
 17.980331 1  3D5             Rx   d 8 FF 08 00 00 FC 00 00 00
 18.000265 1  1B2             Rx   d 8 F0 F0 0F F3 C0 33 3C 00
 18.150312 1  1B1             Rx   d 8 04 01 01 00 01 01 00 04
 18.160342 1  36E             Rx   d 8 00 00 00 C0 00 00 00 00
